(1727704204.349116) can0 00000257#0000E3A0FFFFFF88
(1727704204.349261) can0 00000277#0000001680006001
(1727704204.351007) can0 00000258#000069ABFFFFFF58
(1727704204.351152) can0 00000278#0000000380006009
(1727704204.352618) can0 00000259#FFFE6B95FFFFFF38
(1727704204.352762) can0 00000279#FFFFFFFF80006009
(1727704204.354116) can0 00000257#0000E3A000000018
(1727704204.354261) can0 00000277#0000001680006001
(1727704204.356005) can0 00000258#000069AB00000010
(1727704204.356150) can0 00000278#0000000380006009
(1727704204.357613) can0 00000259#FFFE6B94FFFFFF78
(1727704204.357757) can0 00000279#FFFFFFFF80006009
(1727704204.359113) can0 00000257#0000E3A000000004
(1727704204.359258) can0 00000277#0000001680006001
(1727704204.359615) can0 00000656#8013000000000000
(1727704204.361001) can0 00000258#000069AB000000F4
(1727704204.361146) can0 00000278#0000000380006009
(1727704204.362611) can0 00000259#FFFE6B94FFFFFFD8
(1727704204.362755) can0 00000279#FFFFFFFF80006009
(1727704204.363116) can0 00000658#8013000000000000
(1727704204.364112) can0 00000257#0000E3A000000000
(1727704204.364257) can0 00000277#0000001580006001
(1727704204.366000) can0 00000258#000069AB0000006C
(1727704204.366145) can0 00000278#0000000380006009
(1727704204.366501) can0 00000657#8013000000000000
(1727704204.367611) can0 00000259#FFFE6B9400000004
(1727704204.367755) can0 00000279#FFFFFFFF80006009
(1727704204.369111) can0 00000257#0000E3A000000000
(1727704204.369256) can0 00000277#0000001680006001
(1727704204.371000) can0 00000258#000069AB00000004
(1727704204.371145) can0 00000278#0000000380006009
(1727704204.372610) can0 00000259#FFFE6B9400000000
(1727704204.372754) can0 00000279#FFFFFFFF80006009
(1727704204.374109) can0 00000257#0000E3A000000000
(1727704204.374254) can0 00000277#0000001680006001
(1727704204.375999) can0 00000258#000069ABFFFFFE40
(1727704204.376144) can0 00000278#0000000380006009
(1727704204.377606) can0 00000259#FFFE6B94FFFFFEE8
(1727704204.377751) can0 00000279#FFFFFFFF80006009
(1727704204.379107) can0 00000257#0000E3A000000000
(1727704204.379252) can0 00000277#0000001680006001
(1727704204.380996) can0 00000258#000069AB0000011C
(1727704204.381141) can0 00000278#0000000380006009
(1727704204.382605) can0 00000259#FFFE6B94000000AC
(1727704204.382749) can0 00000279#FFFFFFFF80006009
(1727704204.384105) can0 00000257#0000E3A000000000
(1727704204.384250) can0 00000277#0000001680006001
(1727704204.385996) can0 00000258#000069ABFFFFFE40
(1727704204.386141) can0 00000278#0000000380006009
(1727704204.387603) can0 00000259#FFFE6B94FFFFFFEC
(1727704204.387747) can0 00000279#FFFFFFFF80006009
(1727704204.389105) can0 00000257#0000E3A000000000
(1727704204.389250) can0 00000277#0000001780006001
(1727704204.390994) can0 00000258#000069ABFFFFFE20
(1727704204.391139) can0 00000278#0000000380006009
(1727704204.392602) can0 00000259#FFFE6B94FFFFFF9C
(1727704204.392746) can0 00000279#FFFFFFFF80006009
(1727704204.394102) can0 00000257#0000E3A000000034
(1727704204.394247) can0 00000277#0000001780006001
(1727704204.395992) can0 00000258#000069AB00000020
(1727704204.396137) can0 00000278#0000000380006009
(1727704204.397600) can0 00000259#FFFE6B94FFFFFFB4
(1727704204.397744) can0 00000279#FFFFFFFF80006009
(1727704204.399101) can0 00000257#0000E3A000000004
(1727704204.399246) can0 00000277#0000001780006001
(1727704204.400991) can0 00000258#000069AB00000000
(1727704204.401136) can0 00000278#0000000380006009
(1727704204.402599) can0 00000259#FFFE6B94FFFFFF88
(1727704204.402743) can0 00000279#FFFFFFFF80006009
(1727704204.404100) can0 00000257#0000E3A000000000
(1727704204.404245) can0 00000277#0000001680006001
(1727704204.405987) can0 00000258#000069AB00000134
(1727704204.406133) can0 00000278#0000000380006009
(1727704204.407598) can0 00000259#FFFE6B9400000120
(1727704204.407742) can0 00000279#FFFFFFFF80006009
(1727704204.409098) can0 00000257#0000E3A000000000
(1727704204.409243) can0 00000277#0000001780006001
(1727704204.409600) can0 00000656#8013000000000000
(1727704204.410986) can0 00000258#000069AB000001A4
(1727704204.411131) can0 00000278#0000000380006009
(1727704204.412596) can0 00000259#FFFE6B9400000174
(1727704204.412741) can0 00000279#FFFFFFFF80006009
(1727704204.413101) can0 00000658#8013000000000000
(1727704204.414096) can0 00000257#0000E3A000000000
(1727704204.414241) can0 00000277#0000001780006001
(1727704204.415986) can0 00000258#000069ABFFFFFEC8
(1727704204.416131) can0 00000278#0000000380006009
(1727704204.416486) can0 00000657#8013000000000000
(1727704204.417594) can0 00000259#FFFE6B9400000114
(1727704204.417738) can0 00000279#FFFFFFFF80006009
(1727704204.419095) can0 00000257#0000E3A000000000
(1727704204.419240) can0 00000277#0000001780006001
(1727704204.420985) can0 00000258#000069AB000001D0
(1727704204.421129) can0 00000278#0000000380006009
(1727704204.422594) can0 00000259#FFFE6B9400000000
(1727704204.422738) can0 00000279#FFFFFFFF80006009
(1727704204.424093) can0 00000257#0000E3A000000000
(1727704204.424238) can0 00000277#0000001680006001
(1727704204.425985) can0 00000258#000069AB00000000
(1727704204.426128) can0 00000278#0000000380006009
(1727704204.427592) can0 00000259#FFFE6B9400000000
(1727704204.427736) can0 00000279#FFFFFFFF80006009
(1727704204.429091) can0 00000257#0000E3A000000000
(1727704204.429236) can0 00000277#0000001680006001
(1727704204.430981) can0 00000258#000069ABFFFFFF1C
(1727704204.431126) can0 00000278#0000000380006009
(1727704204.432591) can0 00000259#FFFE6B9400000000
(1727704204.432738) can0 00000279#0000000080006009
(1727704204.434090) can0 00000257#0000E3A000000000
(1727704204.434235) can0 00000277#0000001780006001
(1727704204.435980) can0 00000258#000069ABFFFFFFF4
(1727704204.436125) can0 00000278#0000000380006009
(1727704204.437589) can0 00000259#FFFE6B9400000000
(1727704204.437736) can0 00000279#0000000080006009
(1727704204.439088) can0 00000257#0000E3A000000000
(1727704204.439233) can0 00000277#0000001680006001
(1727704204.440978) can0 00000258#000069ABFFFFFF68
(1727704204.441123) can0 00000278#0000000380006009
(1727704204.442586) can0 00000259#FFFE6B94FFFFFFB4
(1727704204.442729) can0 00000279#FFFFFFFF80006009
(1727704204.444086) can0 00000257#0000E3A000000000
(1727704204.444231) can0 00000277#0000001680006001
(1727704204.445976) can0 00000258#000069AB00000160
(1727704204.446121) can0 00000278#0000000380006009
(1727704204.447586) can0 00000259#FFFE6B940000015C
(1727704204.447729) can0 00000279#FFFFFFFF80006009
(1727704204.449086) can0 00000257#0000E3A000000000
(1727704204.449231) can0 00000277#0000001680006001
(1727704204.450976) can0 00000258#000069AB00000200
(1727704204.451121) can0 00000278#0000000380006009
(1727704204.452587) can0 00000259#FFFE6B9400000000
(1727704204.452729) can0 00000279#FFFFFFFF80006009
(1727704204.454087) can0 00000257#0000E3A0FFFFFF9C
(1727704204.454228) can0 00000277#0000001680006001
(1727704204.455974) can0 00000258#000069ABFFFFFE14
(1727704204.456119) can0 00000278#0000000380006009
(1727704204.457582) can0 00000259#FFFE6B950000018C
(1727704204.457726) can0 00000279#FFFFFFFF80006009
(1727704204.459082) can0 00000257#0000E3A000000000
(1727704204.459228) can0 00000277#0000001680006001
(1727704204.459587) can0 00000656#8013000000000000
(1727704204.460972) can0 00000258#000069ABFFFFFEE0
(1727704204.461118) can0 00000278#0000000380006009
(1727704204.462580) can0 00000259#FFFE6B9500000004
(1727704204.462724) can0 00000279#FFFFFFFF80006009
(1727704204.463087) can0 00000658#8013000000000000
(1727704204.464080) can0 00000257#0000E3A000000000
(1727704204.464228) can0 00000277#0000001680006001
(1727704204.465970) can0 00000258#000069AB00000018
(1727704204.466115) can0 00000278#0000000380006009
(1727704204.466471) can0 00000657#8013000000000000
(1727704204.467579) can0 00000259#FFFE6B9500000030
(1727704204.467723) can0 00000279#FFFFFFFF80006009
(1727704204.469078) can0 00000257#0000E3A0FFFFFFE0
(1727704204.469228) can0 00000277#0000001680006001
(1727704204.470967) can0 00000258#000069AB00000098
(1727704204.471112) can0 00000278#0000000380006009
(1727704204.472579) can0 00000259#FFFE6B9500000000
(1727704204.472723) can0 00000279#FFFFFFFF80006009
(1727704204.474077) can0 00000257#0000E3A000000000
(1727704204.474222) can0 00000277#0000001780006001
(1727704204.475967) can0 00000258#000069AB00000000
(1727704204.476112) can0 00000278#0000000380006009
(1727704204.477574) can0 00000259#FFFE6B950000010C
(1727704204.477718) can0 00000279#FFFFFFFF80006009
(1727704204.479076) can0 00000257#0000E3A000000000
(1727704204.479221) can0 00000277#0000001680006001
(1727704204.480967) can0 00000258#000069ABFFFFFF40
(1727704204.481112) can0 00000278#0000000380006009
(1727704204.482575) can0 00000259#FFFE6B95FFFFFF9C
(1727704204.482719) can0 00000279#FFFFFFFF80006009
(1727704204.484074) can0 00000257#0000E3A000000000
(1727704204.484219) can0 00000277#0000001680006001
(1727704204.485962) can0 00000258#000069AB000000B0
(1727704204.486108) can0 00000278#0000000380006009
(1727704204.487573) can0 00000259#FFFE6B9500000000
(1727704204.487717) can0 00000279#FFFFFFFF80006009
(1727704204.489072) can0 00000257#0000E3A000000000
(1727704204.489218) can0 00000277#0000001780006001
(1727704204.490962) can0 00000258#000069ABFFFFFF8C
(1727704204.491107) can0 00000278#0000000380006009
(1727704204.492570) can0 00000259#FFFE6B95FFFFFFF4
(1727704204.492714) can0 00000279#FFFFFFFF80006009
(1727704204.494070) can0 00000257#0000E3A000000000
(1727704204.494218) can0 00000277#0000001780006001
(1727704204.495961) can0 00000258#000069AB00000074
(1727704204.496106) can0 00000278#0000000380006009
(1727704204.497569) can0 00000259#FFFE6B95000001C0
(1727704204.497713) can0 00000279#FFFFFFFF80006009
(1727704204.499069) can0 00000257#0000E3A000000000
(1727704204.499218) can0 00000277#0000001780006001
(1727704204.500960) can0 00000258#000069AB00000060
(1727704204.501105) can0 00000278#0000000380006009
(1727704204.502567) can0 00000259#FFFE6B9500000014
(1727704204.502711) can0 00000279#FFFFFFFF80006009
(1727704204.504067) can0 00000257#0000E3A000000000
(1727704204.504212) can0 00000277#0000001780006001
(1727704204.505957) can0 00000258#000069AB00000008
(1727704204.506102) can0 00000278#0000000380006009
(1727704204.507567) can0 00000259#FFFE6B95FFFFFFCC
(1727704204.507711) can0 00000279#FFFFFFFF80006009
(1727704204.509065) can0 00000257#0000E3A000000000
(1727704204.509211) can0 00000277#0000001780006001
(1727704204.509567) can0 00000656#8013000000000000
(1727704204.509642) can0 00001040#
(1727704204.510955) can0 00000258#000069ABFFFFFF34
(1727704204.511100) can0 00000278#0000000380006009
(1727704204.512564) can0 00000259#FFFE6B95FFFFFF40
(1727704204.512708) can0 00000279#FFFFFFFF80006009
(1727704204.513068) can0 00000658#8013000000000000
(1727704204.514062) can0 00000257#0000E3A0000000D4
(1727704204.514207) can0 00000277#0000001780006001
(1727704204.515955) can0 00000258#000069AB00000000
(1727704204.516100) can0 00000278#0000000380006009
(1727704204.516455) can0 00000657#8013000000000000
(1727704204.517562) can0 00000259#FFFE6B950000000C
(1727704204.517706) can0 00000279#FFFFFFFF80006009
(1727704204.519062) can0 00000257#0000E3A000000004
(1727704204.519207) can0 00000277#0000001780006001
(1727704204.520954) can0 00000258#000069AB00000000
(1727704204.521099) can0 00000278#0000000380006009
(1727704204.522564) can0 00000259#FFFE6B9500000078
(1727704204.522708) can0 00000279#FFFFFFFF80006009
(1727704204.524060) can0 00000257#0000E3A000000000
(1727704204.524205) can0 00000277#0000001680006001
(1727704204.525952) can0 00000258#000069ABFFFFFF78
(1727704204.526097) can0 00000278#0000000380006009
(1727704204.527560) can0 00000259#FFFE6B95FFFFFFC8
(1727704204.527704) can0 00000279#FFFFFFFF80006009
(1727704204.529059) can0 00000257#0000E3A000000034
(1727704204.529204) can0 00000277#0000001780006001
(1727704204.530950) can0 00000258#000069AB00000000
(1727704204.531095) can0 00000278#0000000380006009
(1727704204.532557) can0 00000259#FFFE6B94000000D8
(1727704204.532701) can0 00000279#FFFFFFFF80006009
(1727704204.534058) can0 00000257#0000E3A000000004
(1727704204.534203) can0 00000277#0000001780006001
(1727704204.535948) can0 00000258#000069AB00000000
(1727704204.536093) can0 00000278#0000000380006009
(1727704204.537558) can0 00000259#FFFE6B9400000004
(1727704204.537702) can0 00000279#FFFFFFFF80006009
(1727704204.539056) can0 00000257#0000E3A000000000
(1727704204.539201) can0 00000277#0000001680006001
(1727704204.540946) can0 00000258#000069AB0000006C
(1727704204.541092) can0 00000278#0000000380006009
(1727704204.542556) can0 00000259#FFFE6B9400000004
(1727704204.542700) can0 00000279#FFFFFFFF80006009
(1727704204.544055) can0 00000257#0000E3A000000000
(1727704204.544200) can0 00000277#0000001680006001
(1727704204.545944) can0 00000258#000069AB0000018C
(1727704204.546092) can0 00000278#0000000380006009
(1727704204.547554) can0 00000259#FFFE6B9400000000
(1727704204.547698) can0 00000279#FFFFFFFF80006009
(1727704204.549053) can0 00000257#0000E3A000000000
(1727704204.549198) can0 00000277#0000001680006001
(1727704204.550944) can0 00000258#000069AB00000050
(1727704204.551092) can0 00000278#0000000380006009
(1727704204.552553) can0 00000259#FFFE6B9400000000
(1727704204.552698) can0 00000279#FFFFFFFF80006009
(1727704204.554051) can0 00000257#0000E3A000000000
(1727704204.554196) can0 00000277#0000001680006001
(1727704204.555942) can0 00000258#000069AB00000004
(1727704204.556087) can0 00000278#0000000380006009
(1727704204.557549) can0 00000259#FFFE6B94FFFFFD34
(1727704204.557693) can0 00000279#FFFFFFFF80006009
(1727704204.559049) can0 00000257#0000E3A000000000
(1727704204.559194) can0 00000277#0000001680006001
(1727704204.559551) can0 00000656#8013000000000000
(1727704204.560941) can0 00000258#000069AB00000000
(1727704204.561086) can0 00000278#0000000380006009
(1727704204.562547) can0 00000259#FFFE6B94FFFFFE14
(1727704204.562693) can0 00000279#FFFFFFFF80006009
(1727704204.563053) can0 00000658#8013000000000000
(1727704204.564048) can0 00000257#0000E3A000000000
(1727704204.564193) can0 00000277#0000001680006001
(1727704204.565939) can0 00000258#000069AB00000000
(1727704204.566084) can0 00000278#0000000380006009
(1727704204.566439) can0 00000657#8013000000000000
(1727704204.567546) can0 00000259#FFFE6B94FFFFFF28
(1727704204.567693) can0 00000279#FFFFFFFF80006009
(1727704204.569046) can0 00000257#0000E3A000000000
(1727704204.569193) can0 00000277#0000001680006001
(1727704204.570939) can0 00000258#000069ABFFFFFFF0
(1727704204.571084) can0 00000278#0000000380006009
(1727704204.572545) can0 00000259#FFFE6B9400000010
(1727704204.572693) can0 00000279#FFFFFFFF80006009
(1727704204.574044) can0 00000257#0000E3A000000008
(1727704204.574193) can0 00000277#0000001780006001
(1727704204.575937) can0 00000258#000069AB00000000
(1727704204.576082) can0 00000278#0000000380006009
(1727704204.577545) can0 00000259#FFFE6B9400000000
(1727704204.577694) can0 00000279#FFFFFFFF80006009
(1727704204.579043) can0 00000257#0000E3A000000000
(1727704204.579188) can0 00000277#0000001680006001
(1727704204.580935) can0 00000258#000069AB00000000
(1727704204.581080) can0 00000278#0000000380006009
(1727704204.582544) can0 00000259#FFFE6B9400000000
(1727704204.582688) can0 00000279#FFFFFFFF80006009
(1727704204.584041) can0 00000257#0000E3A000000000
(1727704204.584186) can0 00000277#0000001680006001
(1727704204.585933) can0 00000258#000069AB00000000
(1727704204.586078) can0 00000278#0000000380006009
(1727704204.587542) can0 00000259#FFFE6B9400000008
(1727704204.587686) can0 00000279#FFFFFFFF80006009
(1727704204.589040) can0 00000257#0000E3A000000000
(1727704204.589185) can0 00000277#0000001780006001
(1727704204.590931) can0 00000258#000069AB00000000
(1727704204.591076) can0 00000278#0000000380006009
(1727704204.592541) can0 00000259#FFFE6B9400000000
(1727704204.592688) can0 00000279#0000000080006009
(1727704204.594039) can0 00000257#0000E3A000000000
(1727704204.594184) can0 00000277#0000001780006001
(1727704204.595928) can0 00000258#000069AB00000124
(1727704204.596073) can0 00000278#0000000380006009
(1727704204.597536) can0 00000259#FFFE6B94FFFFFE88
(1727704204.597683) can0 00000279#0000000080006009
(1727704204.599037) can0 00000257#0000E3A000000000
(1727704204.599182) can0 00000277#0000001780006001
(1727704204.600927) can0 00000258#000069AB00000004
(1727704204.601073) can0 00000278#0000000380006009
(1727704204.602537) can0 00000259#FFFE6B9400000008
(1727704204.602681) can0 00000279#FFFFFFFF80006009
(1727704204.604035) can0 00000257#0000E3A000000000
(1727704204.604180) can0 00000277#0000001780006001
(1727704204.605927) can0 00000258#000069AB00000000
(1727704204.606072) can0 00000278#0000000380006009
(1727704204.607535) can0 00000259#FFFE6B9400000000
(1727704204.607679) can0 00000279#FFFFFFFF80006009
(1727704204.609034) can0 00000257#0000E3A000000000
(1727704204.609179) can0 00000277#0000001780006001
(1727704204.609535) can0 00000656#8013000000000000
(1727704204.610926) can0 00000258#000069ABFFFFFF58
(1727704204.611071) can0 00000278#0000000380006009
(1727704204.612533) can0 00000259#FFFE6B94FFFFFF9C
(1727704204.612680) can0 00000279#0000000080006009
(1727704204.613037) can0 00000658#8013000000000000
(1727704204.614032) can0 00000257#0000E3A000000000
(1727704204.614177) can0 00000277#0000001780006001
(1727704204.615923) can0 00000258#000069AB000000B8
(1727704204.616068) can0 00000278#0000000380006009
(1727704204.616424) can0 00000657#8013000000000000
(1727704204.617533) can0 00000259#FFFE6B9400000000
(1727704204.617680) can0 00000279#0000000080006009
(1727704204.619031) can0 00000257#0000E3A0FFFFFFE0
(1727704204.619176) can0 00000277#0000001680006001
(1727704204.620921) can0 00000258#000069AB000001D8
(1727704204.621067) can0 00000278#0000000380006009
(1727704204.622529) can0 00000259#FFFE6B94FFFFFFF0
(1727704204.622673) can0 00000279#FFFFFFFF80006009
(1727704204.624029) can0 00000257#0000E3A000000000
(1727704204.624174) can0 00000277#0000001680006001
(1727704204.625920) can0 00000258#000069AB00000074
(1727704204.626065) can0 00000278#0000000380006009
(1727704204.627527) can0 00000259#FFFE6B94000000D8
(1727704204.627671) can0 00000279#FFFFFFFF80006009
(1727704204.629027) can0 00000257#0000E3A000000000
(1727704204.629172) can0 00000277#0000001680006001
(1727704204.630919) can0 00000258#000069ABFFFFFFB4
(1727704204.631064) can0 00000278#0000000380006009
(1727704204.632527) can0 00000259#FFFE6B94000000E0
(1727704204.632671) can0 00000279#FFFFFFFF80006009
(1727704204.634025) can0 00000257#0000E3A000000000
(1727704204.634170) can0 00000277#0000001680006001
(1727704204.635917) can0 00000258#000069ABFFFFFEE4
(1727704204.636062) can0 00000278#0000000380006009
(1727704204.637525) can0 00000259#FFFE6B94FFFFFFF4
(1727704204.637669) can0 00000279#FFFFFFFF80006009
(1727704204.639024) can0 00000257#0000E3A000000000
(1727704204.639169) can0 00000277#0000001680006001
(1727704204.640915) can0 00000258#000069AB00000048
(1727704204.641060) can0 00000278#0000000380006009
(1727704204.642525) can0 00000259#FFFE6B9400000000
(1727704204.642669) can0 00000279#FFFFFFFF80006009
(1727704204.644021) can0 00000257#0000E3A0FFFFFFD0
(1727704204.644167) can0 00000277#0000001680006001
(1727704204.645914) can0 00000258#000069AB00000000
(1727704204.646059) can0 00000278#0000000380006009
(1727704204.647523) can0 00000259#FFFE6B9400000000
(1727704204.647667) can0 00000279#FFFFFFFF80006009
(1727704204.649020) can0 00000257#0000E3A000000000
(1727704204.649166) can0 00000277#0000001680006001
(1727704204.650913) can0 00000258#000069AB00000000
(1727704204.651058) can0 00000278#0000000380006009
(1727704204.652522) can0 00000259#FFFE6B9400000000
(1727704204.652666) can0 00000279#FFFFFFFF80006009
(1727704204.654019) can0 00000257#0000E3A000000000
(1727704204.654164) can0 00000277#0000001680006001
(1727704204.655910) can0 00000258#000069AB00000038
(1727704204.656055) can0 00000278#0000000380006009
(1727704204.657520) can0 00000259#FFFE6B9400000000
(1727704204.657664) can0 00000279#FFFFFFFF80006009
(1727704204.659017) can0 00000257#0000E3A0FFFFFF9C
(1727704204.659162) can0 00000277#0000001680006001
(1727704204.659519) can0 00000656#8013000000000000
(1727704204.660910) can0 00000258#000069ABFFFFFFC8
(1727704204.661055) can0 00000278#0000000380006009
(1727704204.662515) can0 00000259#FFFE6B950000010C
(1727704204.662659) can0 00000279#FFFFFFFF80006009
(1727704204.663021) can0 00000658#8013000000000000
(1727704204.664016) can0 00000257#0000E3A0FFFFFFF8
(1727704204.664161) can0 00000277#0000001680006001
(1727704204.665908) can0 00000258#000069ABFFFFFFE8
(1727704204.666053) can0 00000278#0000000380006009
(1727704204.666408) can0 00000657#8013000000000000
(1727704204.667515) can0 00000259#FFFE6B9500000044
(1727704204.667659) can0 00000279#FFFFFFFF80006009
(1727704204.669014) can0 00000257#0000E3A000000000
(1727704204.669159) can0 00000277#0000001680006001
(1727704204.670908) can0 00000258#000069ABFFFFFF60
(1727704204.671053) can0 00000278#0000000380006009
(1727704204.672514) can0 00000259#FFFE6B9500000070
(1727704204.672658) can0 00000279#FFFFFFFF80006009
(1727704204.674012) can0 00000257#0000E3A000000000
(1727704204.674157) can0 00000277#0000001680006001
(1727704204.675904) can0 00000258#000069ABFFFFFF4C
(1727704204.676049) can0 00000278#0000000380006009
(1727704204.677515) can0 00000259#FFFE6B9500000078
(1727704204.677659) can0 00000279#FFFFFFFF80006009
(1727704204.679011) can0 00000257#0000E3A000000000
(1727704204.679156) can0 00000277#0000001680006001
(1727704204.680903) can0 00000258#000069AB00000064
(1727704204.681048) can0 00000278#0000000380006009
(1727704204.682510) can0 00000259#FFFE6B95FFFFFFE4
(1727704204.682654) can0 00000279#FFFFFFFF80006009
(1727704204.684010) can0 00000257#0000E3A000000000
(1727704204.684155) can0 00000277#0000001580006001
(1727704204.685901) can0 00000258#000069ABFFFFFF9C
(1727704204.686046) can0 00000278#0000000380006009
(1727704204.687510) can0 00000259#FFFE6B9500000000
(1727704204.687654) can0 00000279#FFFFFFFF80006009
(1727704204.689008) can0 00000257#0000E3A000000000
(1727704204.689153) can0 00000277#0000001680006001
(1727704204.690900) can0 00000258#000069AB000001AC
(1727704204.691045) can0 00000278#0000000380006009
(1727704204.692508) can0 00000259#FFFE6B9500000000
(1727704204.692652) can0 00000279#FFFFFFFF80006009
(1727704204.694005) can0 00000257#0000E3A00000000C
(1727704204.694150) can0 00000277#0000001680006001
(1727704204.695900) can0 00000258#000069AB00000160
(1727704204.696043) can0 00000278#0000000380006009
(1727704204.697505) can0 00000259#FFFE6B9500000044
(1727704204.697650) can0 00000279#FFFFFFFF80006009
(1727704204.699002) can0 00000257#0000E3A0000000D4
(1727704204.699147) can0 00000277#0000001580006001
(1727704204.700900) can0 00000258#000069AB00000184
(1727704204.701042) can0 00000278#0000000380006009
(1727704204.702504) can0 00000259#FFFE6B94FFFFFF08
(1727704204.702648) can0 00000279#FFFFFFFF80006009
(1727704204.704003) can0 00000257#0000E3A0FFFFFFFC
(1727704204.704149) can0 00000277#0000001580006001
(1727704204.705901) can0 00000258#000069ABFFFFFFB0
(1727704204.706042) can0 00000278#0000000380006009
(1727704204.707502) can0 00000259#FFFE6B94FFFFFF08
(1727704204.707646) can0 00000279#FFFFFFFF80006009
(1727704204.709002) can0 00000257#0000E3A000000000
(1727704204.709147) can0 00000277#0000001680006001
(1727704204.709504) can0 00000656#8013000000000000
(1727704204.710894) can0 00000258#000069AB00000000
(1727704204.711039) can0 00000278#0000000380006009
(1727704204.712501) can0 00000259#FFFE6B94FFFFFEA0
(1727704204.712644) can0 00000279#FFFFFFFF80006009
(1727704204.712901) can0 00001040#
(1727704204.713045) can0 00000658#8013000000000000
(1727704204.714001) can0 00000257#0000E3A000000034
(1727704204.714361) can0 00000277#0000001680006001
(1727704204.715893) can0 00000258#000069AB00000000
(1727704204.716038) can0 00000278#0000000380006009
(1727704204.716393) can0 00000657#8013000000000000
(1727704204.717501) can0 00000259#FFFE6B94000000E0
(1727704204.717645) can0 00000279#FFFFFFFF80006009
(1727704204.719001) can0 00000257#0000E3A000000004
(1727704204.719143) can0 00000277#0000001680006001
(1727704204.720890) can0 00000258#000069AB00000048
(1727704204.721035) can0 00000278#0000000380006009
(1727704204.722502) can0 00000259#FFFE6B94FFFFFF70
(1727704204.722642) can0 00000279#FFFFFFFF80006009
(1727704204.723997) can0 00000257#0000E3A000000000
(1727704204.724142) can0 00000277#0000001580006001
(1727704204.725890) can0 00000258#000069ABFFFFFFF8
(1727704204.726035) can0 00000278#0000000380006009
(1727704204.727502) can0 00000259#FFFE6B9400000000
(1727704204.727642) can0 00000279#FFFFFFFF80006009
(1727704204.728995) can0 00000257#0000E3A000000000
(1727704204.729140) can0 00000277#0000001680006001
(1727704204.730886) can0 00000258#000069AB000000E8
(1727704204.731031) can0 00000278#0000000380006009
(1727704204.732493) can0 00000259#FFFE6B94FFFFFD68
(1727704204.732637) can0 00000279#FFFFFFFF80006009
(1727704204.733992) can0 00000257#0000E3A0000000D4
(1727704204.734137) can0 00000277#0000001680006001
(1727704204.735886) can0 00000258#000069AB00000000
(1727704204.736031) can0 00000278#0000000380006009
(1727704204.737493) can0 00000259#FFFE6B94FFFFFFF8
(1727704204.737637) can0 00000279#FFFFFFFF80006009
(1727704204.738991) can0 00000257#0000E3A000000008
(1727704204.739136) can0 00000277#0000001680006001
(1727704204.740884) can0 00000258#000069AB00000000
(1727704204.741030) can0 00000278#0000000380006009
(1727704204.742493) can0 00000259#FFFE6B9400000000
(1727704204.742637) can0 00000279#FFFFFFFF80006009
(1727704204.743990) can0 00000257#0000E3A000000000
(1727704204.744135) can0 00000277#0000001680006001
(1727704204.745883) can0 00000258#000069ABFFFFFF1C
(1727704204.746028) can0 00000278#0000000380006009
(1727704204.747489) can0 00000259#FFFE6B94FFFFFF8C
(1727704204.747633) can0 00000279#FFFFFFFF80006009
(1727704204.748986) can0 00000257#0000E3A0000000D4
(1727704204.749131) can0 00000277#0000001680006001
(1727704204.750880) can0 00000258#000069AB000000B0
(1727704204.751025) can0 00000278#0000000380006009
(1727704204.752487) can0 00000259#FFFE6B9400000158
(1727704204.752632) can0 00000279#FFFFFFFF80006009
(1727704204.753987) can0 00000257#0000E3A000000004
(1727704204.754132) can0 00000277#0000001680006001
(1727704204.755879) can0 00000258#000069AB0000024C
(1727704204.756024) can0 00000278#0000000380006009
(1727704204.757487) can0 00000259#FFFE6B9400000144
(1727704204.757631) can0 00000279#FFFFFFFF80006009
(1727704204.758985) can0 00000257#0000E3A000000000
(1727704204.759130) can0 00000277#0000001680006001
(1727704204.759487) can0 00000656#8013000000000000
(1727704204.760877) can0 00000258#000069ABFFFFFF8C
(1727704204.761022) can0 00000278#0000000380006009
(1727704204.762485) can0 00000259#FFFE6B94FFFFFFD8
(1727704204.762629) can0 00000279#FFFFFFFF80006009
(1727704204.762990) can0 00000658#8013000000000000
(1727704204.763984) can0 00000257#0000E3A000000000
(1727704204.764129) can0 00000277#0000001680006001
(1727704204.765877) can0 00000258#000069AB00000000
(1727704204.766022) can0 00000278#0000000380006009
(1727704204.766376) can0 00000657#8013000000000000
(1727704204.767484) can0 00000259#FFFE6B94FFFFFFC8
(1727704204.767628) can0 00000279#FFFFFFFF80006009
(1727704204.768982) can0 00000257#0000E3A000000000
(1727704204.769127) can0 00000277#0000001680006001
(1727704204.770876) can0 00000258#000069AB00000000
(1727704204.771021) can0 00000278#0000000380006009
(1727704204.772481) can0 00000259#FFFE6B940000016C
(1727704204.772625) can0 00000279#FFFFFFFF80006009
(1727704204.773981) can0 00000257#0000E3A0000001C0
(1727704204.774126) can0 00000277#0000001680006001
(1727704204.775874) can0 00000258#000069AB00000000
(1727704204.776019) can0 00000278#0000000380006009
(1727704204.777481) can0 00000259#FFFE6B94FFFFFE80
(1727704204.777628) can0 00000279#0000000080006009
(1727704204.778979) can0 00000257#0000E3A000000004
(1727704204.779124) can0 00000277#0000001680006001
(1727704204.780871) can0 00000258#000069ABFFFFFEDC
(1727704204.781016) can0 00000278#0000000380006009
(1727704204.782481) can0 00000259#FFFE6B9400000000
(1727704204.782625) can0 00000279#FFFFFFFF80006009
(1727704204.783977) can0 00000257#0000E3A0FFFFFF84
(1727704204.784122) can0 00000277#0000001680006001
(1727704204.785871) can0 00000258#000069AB00000020
(1727704204.786016) can0 00000278#0000000380006009
(1727704204.787478) can0 00000259#FFFE6B9400000034
(1727704204.787622) can0 00000279#FFFFFFFF80006009
(1727704204.788974) can0 00000257#0000E3A000000034
(1727704204.789120) can0 00000277#0000001680006001
(1727704204.790867) can0 00000258#000069ABFFFFFDC4
(1727704204.791012) can0 00000278#0000000380006009
(1727704204.792475) can0 00000259#FFFE6B940000029C
(1727704204.792622) can0 00000279#0000000080006009
(1727704204.793975) can0 00000257#0000E3A000000004
(1727704204.794120) can0 00000277#0000001680006001
(1727704204.795867) can0 00000258#000069ABFFFFFD58
(1727704204.796011) can0 00000278#0000000380006009
(1727704204.797474) can0 00000259#FFFE6B940000001C
(1727704204.797618) can0 00000279#FFFFFFFF80006009
(1727704204.798973) can0 00000257#0000E3A0FFFFFFF0
(1727704204.799118) can0 00000277#0000001680006001
(1727704204.800864) can0 00000258#000069AB00000098
(1727704204.801009) can0 00000278#0000000380006009
(1727704204.802473) can0 00000259#FFFE6B94FFFFFFFC
(1727704204.802617) can0 00000279#FFFFFFFF80006009
(1727704204.803971) can0 00000257#0000E3A0FFFFFFF0
(1727704204.804116) can0 00000277#0000001680006001
(1727704204.805863) can0 00000258#000069AB000000B8
(1727704204.806008) can0 00000278#0000000380006009
(1727704204.807472) can0 00000259#FFFE6B94000000BC
(1727704204.807616) can0 00000279#FFFFFFFF80006009
(1727704204.808969) can0 00000257#0000E3A000000000
(1727704204.809114) can0 00000277#0000001680006001
(1727704204.809471) can0 00000656#8013000000000000
(1727704204.810861) can0 00000258#000069AB0000019C
(1727704204.811007) can0 00000278#0000000380006009
(1727704204.812469) can0 00000259#FFFE6B94000000E8
(1727704204.812613) can0 00000279#FFFFFFFF80006009
(1727704204.812973) can0 00000658#8013000000000000
(1727704204.813967) can0 00000257#0000E3A000000000
(1727704204.814112) can0 00000277#0000001680006001
(1727704204.815861) can0 00000258#000069ABFFFFFFFC
(1727704204.816007) can0 00000278#0000000380006009
(1727704204.816361) can0 00000657#8013000000000000
(1727704204.817469) can0 00000259#FFFE6B94FFFFFFFC
(1727704204.817613) can0 00000279#FFFFFFFF80006009
(1727704204.818967) can0 00000257#0000E3A000000000
(1727704204.819112) can0 00000277#0000001680006001
(1727704204.820860) can0 00000258#000069AB00000000
(1727704204.821007) can0 00000278#0000000380006009
(1727704204.822468) can0 00000259#FFFE6B9400000000
(1727704204.822612) can0 00000279#FFFFFFFF80006009
(1727704204.823965) can0 00000257#0000E3A0FFFFFF6C
(1727704204.824110) can0 00000277#0000001680006001
(1727704204.825857) can0 00000258#000069AB00000298
(1727704204.826002) can0 00000278#0000000380006009
(1727704204.827466) can0 00000259#FFFE6B9400000000
(1727704204.827610) can0 00000279#FFFFFFFF80006009
(1727704204.828962) can0 00000257#0000E3A000000008
(1727704204.829108) can0 00000277#0000001680006001
(1727704204.829273) can0 101#0001
(1727704204.830854) can0 00000258#000069AB00000128
(1727704204.831000) can0 00000278#0000000380006009
(1727704204.832463) can0 00000259#FFFE6B9500000194
(1727704204.832608) can0 00000279#FFFFFFFF80006009
(1727704204.833961) can0 00000257#0000E3A0FFFFFFA8
(1727704204.834108) can0 00000277#0000001680006001
(1727704204.835855) can0 00000258#000069AB00000040
(1727704204.836000) can0 00000278#0000000380006009
(1727704204.837462) can0 00000259#FFFE6B9400000054
(1727704204.837608) can0 00000279#FFFFFFFF80006009
(1727704204.838960) can0 00000257#0000E3A0FFFFFFB4
(1727704204.839108) can0 00000277#0000001580006001
(1727704204.840853) can0 00000258#000069AB0000011C
(1727704204.840998) can0 00000278#0000000380006009
(1727704204.842459) can0 00000259#FFFE6B9500000044
(1727704204.842603) can0 00000279#FFFFFFFF80006009
(1727704204.843958) can0 00000257#0000E3A000000000
(1727704204.844103) can0 00000277#0000001580006001
(1727704204.845851) can0 00000258#000069AB000000EC
(1727704204.845996) can0 00000278#0000000380006009
(1727704204.847460) can0 00000259#FFFE6B9500000000
(1727704204.847604) can0 00000279#FFFFFFFF80006009
(1727704204.848956) can0 00000257#0000E3A000000000
(1727704204.849101) can0 00000277#0000001580006001
(1727704204.850848) can0 00000258#000069AB00000168
(1727704204.850993) can0 00000278#0000000380006009
(1727704204.852458) can0 00000259#FFFE6B95FFFFFF90
(1727704204.852602) can0 00000279#FFFFFFFF80006009
(1727704204.853954) can0 00000257#0000E3A000000000
(1727704204.854099) can0 00000277#0000001580006001
(1727704204.855849) can0 00000258#000069ABFFFFFE20
(1727704204.855994) can0 00000278#0000000380006009
(1727704204.857455) can0 00000259#FFFE6B95FFFFFF88
(1727704204.857599) can0 00000279#FFFFFFFF80006009
(1727704204.858953) can0 00000257#0000E3A0FFFFFF94
(1727704204.859098) can0 00000277#0000001580006001
(1727704204.859243) can0 000014D1#
(1727704204.859955) can0 00000656#8013000000000000
(1727704204.860846) can0 00000258#000069ABFFFFFD90
(1727704204.860992) can0 00000278#0000000380006009
(1727704204.862454) can0 00000259#FFFE6B95FFFFFF7C
(1727704204.862598) can0 00000279#FFFFFFFF80006009
(1727704204.862746) can0 000014D3#
(1727704204.863458) can0 00000658#8013000000000000
(1727704204.863951) can0 00000257#0000E3A000000000
(1727704204.864096) can0 00000277#0000001580006001
(1727704204.865846) can0 00000258#000069ABFFFFFFFC
(1727704204.865991) can0 00000278#0000000380006009
(1727704204.866135) can0 000014D2#
(1727704204.866846) can0 00000657#8013000000000000
(1727704204.867454) can0 00000259#FFFE6B9500000000
(1727704204.867598) can0 00000279#FFFFFFFF80006009
(1727704204.868949) can0 00000257#0000E3A0FFFFFF9C
(1727704204.869095) can0 00000277#0000001580006001
(1727704204.870844) can0 00000258#000069AB00000000
(1727704204.870989) can0 00000278#0000000380006009
(1727704204.872449) can0 00000259#FFFE6B95000001AC
(1727704204.872593) can0 00000279#FFFFFFFF80006009
(1727704204.873948) can0 00000257#0000E3A0FFFFFFD4
(1727704204.874093) can0 00000277#0000001580006001
(1727704204.875841) can0 00000258#000069AB00000044
(1727704204.875986) can0 00000278#0000000380006009
(1727704204.877450) can0 00000259#FFFE6B9500000018
(1727704204.877594) can0 00000279#FFFFFFFF80006009
(1727704204.878946) can0 00000257#0000E3A0FFFFFF8C
(1727704204.879091) can0 00000277#0000001580006001
(1727704204.880840) can0 00000258#000069AB0000003C
(1727704204.880985) can0 00000278#0000000380006009
(1727704204.882448) can0 00000259#FFFE6B9500000070
(1727704204.882592) can0 00000279#FFFFFFFF80006009
(1727704204.883945) can0 00000257#0000E3A000000004
(1727704204.884090) can0 00000277#0000001580006001
(1727704204.885840) can0 00000258#000069ABFFFFFF98
(1727704204.885985) can0 00000278#0000000380006009
(1727704204.887446) can0 00000259#FFFE6B95000000B8
(1727704204.887589) can0 00000279#FFFFFFFF80006009
(1727704204.888943) can0 00000257#0000E3A000000000
(1727704204.889088) can0 00000277#0000001580006001
(1727704204.890837) can0 00000258#000069ABFFFFFFA4
(1727704204.890982) can0 00000278#0000000380006009
(1727704204.892443) can0 00000259#FFFE6B95000000B0
(1727704204.892588) can0 00000279#FFFFFFFF80006009
(1727704204.893942) can0 00000257#0000E3A000000000
(1727704204.894087) can0 00000277#0000001580006001
(1727704204.895836) can0 00000258#000069ABFFFFFF88
(1727704204.895981) can0 00000278#0000000380006009
(1727704204.897443) can0 00000259#FFFE6B94FFFFFE34
(1727704204.897587) can0 00000279#FFFFFFFF80006009
(1727704204.898940) can0 00000257#0000E3A000000000
(1727704204.899086) can0 00000277#0000001580006001
(1727704204.900834) can0 00000258#000069AB00000004
(1727704204.900979) can0 00000278#0000000380006009
(1727704204.902441) can0 00000259#FFFE6B94FFFFFFF8
(1727704204.902585) can0 00000279#FFFFFFFF80006009
(1727704204.903938) can0 00000257#0000E3A0000000B8
(1727704204.904083) can0 00000277#0000001580006001
(1727704204.905834) can0 00000258#000069ABFFFFFFF8
(1727704204.905979) can0 00000278#0000000380006009
(1727704204.907441) can0 00000259#FFFE6B9400000000
(1727704204.907585) can0 00000279#FFFFFFFF80006009
(1727704204.908938) can0 00000257#0000E3A0FFFFFF7C
(1727704204.909083) can0 00000277#0000001680006001
(1727704204.909166) can0 00001040#
(1727704204.909939) can0 00000656#8013000000000000
(1727704204.910832) can0 00000258#000069AB00000000
(1727704204.910977) can0 00000278#0000000380006009
(1727704204.912436) can0 00000259#FFFE6B94FFFFFE94
(1727704204.912580) can0 00000279#FFFFFFFF80006009
(1727704204.912942) can0 00000658#8013000000000000
(1727704204.913935) can0 00000257#0000E3A000000000
(1727704204.914080) can0 00000277#0000001680006001
(1727704204.915829) can0 00000258#000069AB00000004
(1727704204.915974) can0 00000278#0000000380006009
(1727704204.916330) can0 00000657#8013000000000000
(1727704204.917436) can0 00000259#FFFE6B94FFFFFFDC
(1727704204.917580) can0 00000279#FFFFFFFF80006009
(1727704204.918934) can0 00000257#0000E3A000000000
(1727704204.919079) can0 00000277#0000001580006001
(1727704204.920828) can0 00000258#000069AB00000000
(1727704204.920973) can0 00000278#0000000380006009
(1727704204.922434) can0 00000259#FFFE6B94FFFFFF48
(1727704204.922578) can0 00000279#FFFFFFFF80006009
(1727704204.923933) can0 00000257#0000E3A000000000
(1727704204.924078) can0 00000277#0000001580006001
(1727704204.925827) can0 00000258#000069AB00000000
(1727704204.925972) can0 00000278#0000000380006009
(1727704204.927435) can0 00000259#FFFE6B9400000000
(1727704204.927579) can0 00000279#FFFFFFFF80006009
(1727704204.928931) can0 00000257#0000E3A000000000
(1727704204.929076) can0 00000277#0000001680006001
(1727704204.930825) can0 00000258#000069AB00000070
(1727704204.930971) can0 00000278#0000000380006009
(1727704204.932433) can0 00000259#FFFE6B9400000000
(1727704204.932577) can0 00000279#FFFFFFFF80006009
(1727704204.933929) can0 00000257#0000E3A000000000
(1727704204.934074) can0 00000277#0000001680006001
(1727704204.935824) can0 00000258#000069AB00000100
(1727704204.935969) can0 00000278#0000000380006009
(1727704204.937430) can0 00000259#FFFE6B9400000018
(1727704204.937574) can0 00000279#FFFFFFFF80006009
(1727704204.938927) can0 00000257#0000E3A000000000
(1727704204.939072) can0 00000277#0000001680006001
(1727704204.940821) can0 00000258#000069ABFFFFFF14
(1727704204.940966) can0 00000278#0000000380006009
(1727704204.942427) can0 00000259#FFFE6B94FFFFFE3C
(1727704204.942572) can0 00000279#FFFFFFFF80006009
(1727704204.943926) can0 00000257#0000E3A000000000
(1727704204.944071) can0 00000277#0000001680006001
(1727704204.945821) can0 00000258#000069AB00000034
(1727704204.945966) can0 00000278#0000000380006009
(1727704204.947426) can0 00000259#FFFE6B94FFFFFF74
(1727704204.947570) can0 00000279#FFFFFFFF80006009
(1727704204.948923) can0 00000257#0000E3A0FFFFFFD0
(1727704204.949068) can0 00000277#0000001680006001
(1727704204.950818) can0 00000258#000069AB000000B8
(1727704204.950963) can0 00000278#0000000380006009
(1727704204.952427) can0 00000259#FFFE6B940000019C
(1727704204.952574) can0 00000279#0000000080006009
(1727704204.953922) can0 00000257#0000E3A0FFFFFF68
(1727704204.954067) can0 00000277#0000001680006001
(1727704204.955816) can0 00000258#000069ABFFFFFF2C
(1727704204.955961) can0 00000278#0000000380006009
(1727704204.957425) can0 00000259#FFFE6B9400000004
(1727704204.957569) can0 00000279#FFFFFFFF80006009
(1727704204.958921) can0 00000257#0000E3A000000000
(1727704204.959066) can0 00000277#0000001680006001
(1727704204.959423) can0 00000656#8013000000000000
(1727704204.960815) can0 00000258#000069AB00000074
(1727704204.960960) can0 00000278#0000000380006009
(1727704204.962422) can0 00000259#FFFE6B94FFFFFFF4
(1727704204.962567) can0 00000279#FFFFFFFF80006009
(1727704204.962926) can0 00000658#8013000000000000
(1727704204.963919) can0 00000257#0000E3A000000000
(1727704204.964064) can0 00000277#0000001680006001
(1727704204.965815) can0 00000258#000069AB00000084
(1727704204.965958) can0 00000278#0000000380006009
(1727704204.966315) can0 00000657#8013000000000000
(1727704204.967420) can0 00000259#FFFE6B940000012C
(1727704204.967564) can0 00000279#FFFFFFFF80006009
(1727704204.968918) can0 00000257#0000E3A000000000
(1727704204.969063) can0 00000277#0000001680006001
(1727704204.970815) can0 00000258#000069AB00000000
(1727704204.970958) can0 00000278#0000000380006009
(1727704204.972419) can0 00000259#FFFE6B9400000088
(1727704204.972566) can0 00000279#0000000080006009
(1727704204.973916) can0 00000257#0000E3A0FFFFFFF8
(1727704204.974062) can0 00000277#0000001680006001
(1727704204.975810) can0 00000258#000069ABFFFFFF2C
(1727704204.975955) can0 00000278#0000000380006009
(1727704204.977418) can0 00000259#FFFE6B94FFFFFFFC
(1727704204.977565) can0 00000279#0000000080006009
(1727704204.978916) can0 00000257#0000E3A000000000
(1727704204.979060) can0 00000277#0000001680006001
(1727704204.980808) can0 00000258#000069AB0000001C
(1727704204.980953) can0 00000278#0000000380006009
(1727704204.982416) can0 00000259#FFFE6B94FFFFFF68
(1727704204.982558) can0 00000279#FFFFFFFF80006009
(1727704204.983916) can0 00000257#0000E3A000000000
(1727704204.984058) can0 00000277#0000001680006001
(1727704204.985809) can0 00000258#000069AB00000000
(1727704204.985954) can0 00000278#0000000380006009
(1727704204.987416) can0 00000259#FFFE6B94000001B0
(1727704204.987559) can0 00000279#FFFFFFFF80006009
(1727704204.988910) can0 00000257#0000E3A0FFFFFFD0
(1727704204.989055) can0 00000277#0000001680006001
(1727704204.990807) can0 00000258#000069AB00000000
(1727704204.990952) can0 00000278#0000000380006009
(1727704204.992417) can0 00000259#FFFE6B9400000028
(1727704204.992557) can0 00000279#FFFFFFFF80006009
(1727704204.993911) can0 00000257#0000E3A0FFFFFFBC
(1727704204.994056) can0 00000277#0000001680006001
(1727704204.995804) can0 00000258#000069AB000001E4
(1727704204.995949) can0 00000278#0000000380006009
(1727704204.997412) can0 00000259#FFFE6B94FFFFFF5C
(1727704204.997556) can0 00000279#FFFFFFFF80006009
(1727704204.998908) can0 00000257#0000E3A000000004
(1727704204.999053) can0 00000277#0000001680006001
(1727704205.000805) can0 00000258#000069ABFFFFFEB8
(1727704205.000950) can0 00000278#0000000380006009
(1727704205.002410) can0 00000259#FFFE6B9400000014
(1727704205.002554) can0 00000279#FFFFFFFF80006009
(1727704205.003905) can0 00000257#0000E3A0000000B8
(1727704205.004050) can0 00000277#0000001680006001
(1727704205.005801) can0 00000258#000069AB00000074
(1727704205.005946) can0 00000278#0000000380006009
(1727704205.007410) can0 00000259#FFFE6B9400000000
(1727704205.007554) can0 00000279#FFFFFFFF80006009
(1727704205.008905) can0 00000257#0000E3A0FFFFFF80
(1727704205.009051) can0 00000277#0000001680006001
(1727704205.009407) can0 00000656#8013000000000000
(1727704205.010801) can0 00000258#000069AB00000078
(1727704205.010946) can0 00000278#0000000380006009
(1727704205.012405) can0 00000259#FFFE6B9500000168
(1727704205.012549) can0 00000279#FFFFFFFF80006009
(1727704205.012911) can0 00000658#8013000000000000
(1727704205.013903) can0 00000257#0000E3A000000000
(1727704205.014048) can0 00000277#0000001680006001
(1727704205.015798) can0 00000258#000069ABFFFFFF74
(1727704205.015943) can0 00000278#0000000380006009
(1727704205.016299) can0 00000657#8013000000000000
(1727704205.017405) can0 00000259#FFFE6B9500000060
(1727704205.017550) can0 00000279#FFFFFFFF80006009
(1727704205.018902) can0 00000257#0000E3A0000001C0
(1727704205.019047) can0 00000277#0000001580006001
(1727704205.020797) can0 00000258#000069AB00000014
(1727704205.020942) can0 00000278#0000000380006009
(1727704205.022405) can0 00000259#FFFE6B9500000000
(1727704205.022549) can0 00000279#FFFFFFFF80006009
(1727704205.023900) can0 00000257#0000E3A000000004
(1727704205.024045) can0 00000277#0000001580006001
(1727704205.025796) can0 00000258#000069AB00000064
(1727704205.025941) can0 00000278#0000000380006009
(1727704205.027401) can0 00000259#FFFE6B9500000038
(1727704205.027545) can0 00000279#FFFFFFFF80006009
(1727704205.028896) can0 00000257#0000E3A0000000D4
(1727704205.029042) can0 00000277#0000001580006001
(1727704205.030793) can0 00000258#000069AB00000038
(1727704205.030938) can0 00000278#0000000380006009
(1727704205.032400) can0 00000259#FFFE6B9500000038
(1727704205.032544) can0 00000279#FFFFFFFF80006009
(1727704205.033896) can0 00000257#0000E3A0FFFFFF68
(1727704205.034041) can0 00000277#0000001580006001
(1727704205.035792) can0 00000258#000069ABFFFFFFFC
(1727704205.035937) can0 00000278#0000000380006009
(1727704205.037399) can0 00000259#FFFE6B9500000004
(1727704205.037543) can0 00000279#FFFFFFFF80006009
(1727704205.038895) can0 00000257#0000E3A0FFFFFF88
(1727704205.039040) can0 00000277#0000001580006001
(1727704205.040790) can0 00000258#000069ABFFFFFFD4
(1727704205.040936) can0 00000278#0000000380006009
(1727704205.042397) can0 00000259#FFFE6B95FFFFFFF8
(1727704205.042541) can0 00000279#FFFFFFFF80006009
(1727704205.043894) can0 00000257#0000E3A000000000
(1727704205.044039) can0 00000277#0000001580006001
(1727704205.045789) can0 00000258#000069ABFFFFFFAC
(1727704205.045934) can0 00000278#0000000380006009
(1727704205.047395) can0 00000259#FFFE6B95FFFFFFFC
(1727704205.047539) can0 00000279#FFFFFFFF80006009
(1727704205.048891) can0 00000257#0000E3A0FFFFFF3C
(1727704205.049036) can0 00000277#0000001580006001
(1727704205.050788) can0 00000258#000069ABFFFFFF88
(1727704205.050933) can0 00000278#0000000380006009
(1727704205.052394) can0 00000259#FFFE6B9500000040
(1727704205.052538) can0 00000279#FFFFFFFF80006009
(1727704205.053889) can0 00000257#0000E3A0FFFFFFE4
(1727704205.054034) can0 00000277#0000001580006001
(1727704205.055786) can0 00000258#000069AB00000000
(1727704205.055931) can0 00000278#0000000380006009
(1727704205.057394) can0 00000259#FFFE6B9500000000
(1727704205.057538) can0 00000279#FFFFFFFF80006009
(1727704205.058889) can0 00000257#0000E3A000000004
(1727704205.059034) can0 00000277#0000001580006001
(1727704205.059390) can0 00000656#8013000000000000
(1727704205.060785) can0 00000258#000069AB00000058
(1727704205.060930) can0 00000278#0000000380006009
(1727704205.062392) can0 00000259#FFFE6B9500000000
(1727704205.062536) can0 00000279#FFFFFFFF80006009
(1727704205.062895) can0 00000658#8013000000000000
(1727704205.063888) can0 00000257#0000E3A0FFFFFFA8
(1727704205.064033) can0 00000277#0000001580006001
(1727704205.065782) can0 00000258#000069ABFFFFFE5C
(1727704205.065927) can0 00000278#0000000380006009
(1727704205.066283) can0 00000657#8013000000000000
(1727704205.067390) can0 00000259#FFFE6B9500000000
(1727704205.067534) can0 00000279#FFFFFFFF80006009
(1727704205.068885) can0 00000257#0000E3A0FFFFFFE4
(1727704205.069030) can0 00000277#0000001580006001
(1727704205.070781) can0 00000258#000069AB000000A0
(1727704205.070926) can0 00000278#0000000380006009
(1727704205.072388) can0 00000259#FFFE6B950000007C
(1727704205.072532) can0 00000279#FFFFFFFF80006009
(1727704205.073884) can0 00000257#0000E3A000000004
(1727704205.074029) can0 00000277#0000001680006001
(1727704205.075779) can0 00000258#000069AB00000160
(1727704205.075924) can0 00000278#0000000380006009
(1727704205.077387) can0 00000259#FFFE6B940000000C
(1727704205.077531) can0 00000279#FFFFFFFF80006009
(1727704205.078882) can0 00000257#0000E3A0FFFFFFF0
(1727704205.079027) can0 00000277#0000001580006001
(1727704205.080777) can0 00000258#000069AB00000084
(1727704205.080922) can0 00000278#0000000380006009
(1727704205.082386) can0 00000259#FFFE6B9400000000
(1727704205.082530) can0 00000279#FFFFFFFF80006009
(1727704205.083882) can0 00000257#0000E3A000000050
(1727704205.084027) can0 00000277#0000001580006001
(1727704205.085778) can0 00000258#000069AB00000078
(1727704205.085923) can0 00000278#0000000380006009
(1727704205.087384) can0 00000259#FFFE6B9400000000
(1727704205.087528) can0 00000279#FFFFFFFF80006009
(1727704205.088879) can0 00000257#0000E3A000000004
(1727704205.089024) can0 00000277#0000001680006001
(1727704205.090775) can0 00000258#000069ABFFFFFEC8
(1727704205.090922) can0 00000278#0000000380006009
(1727704205.092382) can0 00000259#FFFE6B9400000058
(1727704205.092526) can0 00000279#FFFFFFFF80006009
(1727704205.093878) can0 00000257#0000E3A000000000
(1727704205.094023) can0 00000277#0000001680006001
(1727704205.095774) can0 00000258#000069ABFFFFFEBC
(1727704205.095922) can0 00000278#0000000380006009
(1727704205.097380) can0 00000259#FFFE6B9400000054
(1727704205.097524) can0 00000279#FFFFFFFF80006009
(1727704205.098876) can0 00000257#0000E3A000000000
(1727704205.099023) can0 00000277#0000001680006001
(1727704205.100771) can0 00000258#000069AB00000004
(1727704205.100916) can0 00000278#0000000380006009
(1727704205.102377) can0 00000259#FFFE6B9400000064
(1727704205.102523) can0 00000279#FFFFFFFF80006009
(1727704205.103873) can0 00000257#0000E3A0000000D4
(1727704205.104018) can0 00000277#0000001580006001
(1727704205.105770) can0 00000258#000069AB00000000
(1727704205.105916) can0 00000278#0000000380006009
(1727704205.107377) can0 00000259#FFFE6B94000001B8
(1727704205.107523) can0 00000279#FFFFFFFF80006009
(1727704205.108873) can0 00000257#0000E3A000000004
(1727704205.109018) can0 00000277#0000001680006001
(1727704205.109375) can0 00000656#8013000000000000
(1727704205.110770) can0 00000258#000069AB000001C0
(1727704205.110915) can0 00000278#0000000380006009
(1727704205.112375) can0 00000259#FFFE6B94FFFFFEA4
(1727704205.112523) can0 00000279#FFFFFFFF80006009
(1727704205.112879) can0 00000658#8013000000000000
(1727704205.113067) can0 00001040#
(1727704205.113880) can0 00000257#0000E3A000000000
(1727704205.114025) can0 00000277#0000001680006001
(1727704205.115767) can0 00000258#000069AB00000004
(1727704205.115912) can0 00000278#0000000380006009
(1727704205.116268) can0 00000657#8013000000000000
(1727704205.117375) can0 00000259#FFFE6B9400000008
(1727704205.117519) can0 00000279#FFFFFFFF80006009
(1727704205.118870) can0 00000257#0000E3A0FFFFFFFC
(1727704205.119015) can0 00000277#0000001680006001
(1727704205.120767) can0 00000258#000069AB00000000
(1727704205.120911) can0 00000278#0000000380006009
(1727704205.122373) can0 00000259#FFFE6B9400000000
(1727704205.122517) can0 00000279#FFFFFFFF80006009
(1727704205.123868) can0 00000257#0000E3A000000000
(1727704205.124013) can0 00000277#0000001680006001
(1727704205.125765) can0 00000258#000069ABFFFFFFD0
(1727704205.125911) can0 00000278#0000000380006009
(1727704205.127368) can0 00000259#FFFE6B94FFFFFEB4
(1727704205.127512) can0 00000279#FFFFFFFF80006009
(1727704205.128867) can0 00000257#0000E3A000000000
(1727704205.129012) can0 00000277#0000001680006001
(1727704205.130762) can0 00000258#000069ABFFFFFF9C
(1727704205.130907) can0 00000278#0000000380006009
(1727704205.132368) can0 00000259#FFFE6B9400000088
(1727704205.132512) can0 00000279#FFFFFFFF80006009
(1727704205.133865) can0 00000257#0000E3A0FFFFFFF0
(1727704205.134010) can0 00000277#0000001680006001
(1727704205.135761) can0 00000258#000069AB00000008
(1727704205.135906) can0 00000278#0000000380006009
(1727704205.137368) can0 00000259#FFFE6B9400000000
(1727704205.137512) can0 00000279#FFFFFFFF80006009
(1727704205.138530) can0 3A1#
(1727704205.138864) can0 00000257#0000E3A000000000
(1727704205.139009) can0 00000277#0000001680006001
(1727704205.140760) can0 00000258#000069AB00000000
(1727704205.140905) can0 00000278#0000000380006009
(1727704205.142367) can0 00000259#FFFE6B9400000000
(1727704205.142511) can0 00000279#FFFFFFFF80006009
(1727704205.143861) can0 00000257#0000E3A0FFFFFF8C
(1727704205.144006) can0 00000277#0000001680006001
(1727704205.145758) can0 00000258#000069AB00000000
(1727704205.145903) can0 00000278#0000000380006009
(1727704205.147363) can0 00000259#FFFE6B94FFFFFF9C
(1727704205.147507) can0 00000279#FFFFFFFF80006009
(1727704205.148860) can0 00000257#0000E3A000000000
(1727704205.149005) can0 00000277#0000001680006001
(1727704205.150757) can0 00000258#000069ABFFFFFFD0
(1727704205.150902) can0 00000278#0000000380006009
(1727704205.152363) can0 00000259#FFFE6B94FFFFFFE0
(1727704205.152510) can0 00000279#0000000080006009
(1727704205.153858) can0 00000257#0000E3A000000000
(1727704205.154003) can0 00000277#0000001680006001
(1727704205.155755) can0 00000258#000069AB000001C0
(1727704205.155900) can0 00000278#0000000380006009
(1727704205.157363) can0 00000259#FFFE6B94FFFFFF84
(1727704205.157507) can0 00000279#FFFFFFFF80006009
(1727704205.158857) can0 00000257#0000E3A000000000
(1727704205.159002) can0 00000277#0000001680006001
(1727704205.159358) can0 00000656#8013000000000000
(1727704205.160753) can0 00000258#000069ABFFFFFEF4
(1727704205.160898) can0 00000278#0000000380006009
(1727704205.162358) can0 00000259#FFFE6B94FFFFFE98
(1727704205.162502) can0 00000279#FFFFFFFF80006009
(1727704205.162864) can0 00000658#8013000000000000
(1727704205.163854) can0 00000257#0000E3A0FFFFFF88
(1727704205.164000) can0 00000277#0000001680006001
(1727704205.165751) can0 00000258#000069AB000000A4
(1727704205.165896) can0 00000278#0000000380006009
(1727704205.166252) can0 00000657#8013000000000000
(1727704205.167357) can0 00000259#FFFE6B9400000068
(1727704205.167501) can0 00000279#FFFFFFFF80006009
(1727704205.168854) can0 00000257#0000E3A0FFFFFF20
(1727704205.168999) can0 00000277#0000001680006001
(1727704205.170750) can0 00000258#000069ABFFFFFFFC
(1727704205.170895) can0 00000278#0000000380006009
(1727704205.172355) can0 00000259#FFFE6B94FFFFFF48
(1727704205.172499) can0 00000279#FFFFFFFF80006009
(1727704205.173851) can0 00000257#0000E3A0FFFFFF94
(1727704205.173996) can0 00000277#0000001680006001
(1727704205.175748) can0 00000258#000069AB00000000
(1727704205.175893) can0 00000278#0000000380006009
(1727704205.177355) can0 00000259#FFFE6B94FFFFFFFC
(1727704205.177499) can0 00000279#FFFFFFFF80006009
(1727704205.178849) can0 00000257#0000E3A0FFFFFFAC
(1727704205.178994) can0 00000277#0000001680006001
(1727704205.180748) can0 00000258#000069AB00000000
(1727704205.180893) can0 00000278#0000000380006009
(1727704205.182352) can0 00000259#FFFE6B94FFFFFF94
(1727704205.182496) can0 00000279#FFFFFFFF80006009
(1727704205.183848) can0 00000257#0000E3A000000034
(1727704205.183993) can0 00000277#0000001580006001
(1727704205.185746) can0 00000258#000069AB00000000
(1727704205.185891) can0 00000278#0000000380006009
(1727704205.187350) can0 00000259#FFFE6B9500000058
(1727704205.187495) can0 00000279#FFFFFFFF80006009
(1727704205.188846) can0 00000257#0000E3A0FFFFFF78
(1727704205.188991) can0 00000277#0000001580006001
(1727704205.190744) can0 00000258#000069AB00000000
(1727704205.190889) can0 00000278#0000000380006009
(1727704205.192350) can0 00000259#FFFE6B95FFFFFFF8
(1727704205.192494) can0 00000279#FFFFFFFF80006009
(1727704205.193845) can0 00000257#0000E3A000000004
(1727704205.193990) can0 00000277#0000001680006001
(1727704205.195742) can0 00000258#000069AB0000006C
(1727704205.195887) can0 00000278#0000000380006009
(1727704205.197348) can0 00000259#FFFE6B95FFFFFFB4
(1727704205.197492) can0 00000279#FFFFFFFF80006009
(1727704205.198844) can0 00000257#0000E3A000000000
(1727704205.198989) can0 00000277#0000001580006001
(1727704205.200741) can0 00000258#000069AB00000000
(1727704205.200886) can0 00000278#0000000380006009
(1727704205.202347) can0 00000259#FFFE6B9500000004
(1727704205.202491) can0 00000279#FFFFFFFF80006009
(1727704205.203843) can0 00000257#0000E3A000000000
(1727704205.203988) can0 00000277#0000001580006001
(1727704205.205739) can0 00000258#000069ABFFFFFFE0
(1727704205.205884) can0 00000278#0000000380006009
(1727704205.207346) can0 00000259#FFFE6B95FFFFFF9C
(1727704205.207490) can0 00000279#FFFFFFFF80006009
(1727704205.208840) can0 00000257#0000E3A000000008
(1727704205.208985) can0 00000277#0000001580006001
(1727704205.209343) can0 00000656#8013000000000000
(1727704205.210737) can0 00000258#000069AB00000104
(1727704205.210882) can0 00000278#0000000380006009
(1727704205.212344) can0 00000259#FFFE6B9500000004
(1727704205.212488) can0 00000279#FFFFFFFF80006009
(1727704205.212847) can0 00000658#8013000000000000
(1727704205.213838) can0 00000257#0000E3A0000000C8
(1727704205.213983) can0 00000277#0000001580006001
(1727704205.215736) can0 00000258#000069ABFFFFFFA4
(1727704205.215881) can0 00000278#0000000380006009
(1727704205.216239) can0 00000657#8013000000000000
(1727704205.217344) can0 00000259#FFFE6B9500000000
(1727704205.217488) can0 00000279#FFFFFFFF80006009
(1727704205.218836) can0 00000257#0000E3A0FFFFFFA4
(1727704205.218981) can0 00000277#0000001580006001
(1727704205.220733) can0 00000258#000069AB00000098
(1727704205.220878) can0 00000278#0000000380006009
(1727704205.222340) can0 00000259#FFFE6B9500000160
(1727704205.222484) can0 00000279#FFFFFFFF80006009
(1727704205.223834) can0 00000257#0000E3A0FFFFFF88
(1727704205.223980) can0 00000277#0000001580006001
(1727704205.225734) can0 00000258#000069ABFFFFFF60
(1727704205.225879) can0 00000278#0000000380006009
(1727704205.227338) can0 00000259#FFFE6B9500000048
(1727704205.227482) can0 00000279#FFFFFFFF80006009
(1727704205.228835) can0 00000257#0000E3A0FFFFFF60
(1727704205.228980) can0 00000277#0000001580006001
(1727704205.230731) can0 00000258#000069AB00000058
(1727704205.230876) can0 00000278#0000000380006009
(1727704205.232335) can0 00000259#FFFE6B950000015C
(1727704205.232479) can0 00000279#FFFFFFFF80006009
(1727704205.233832) can0 00000257#0000E3A0FFFFFF88
(1727704205.233977) can0 00000277#0000001580006001
(1727704205.235730) can0 00000258#000069ABFFFFFFC4
(1727704205.235874) can0 00000278#0000000380006009
(1727704205.237336) can0 00000259#FFFE6B95FFFFFF60
(1727704205.237480) can0 00000279#FFFFFFFF80006009
(1727704205.238830) can0 00000257#0000E3A0000000DC
(1727704205.238974) can0 00000277#0000001580006001
(1727704205.240730) can0 00000258#000069AB00000000
(1727704205.240873) can0 00000278#0000000380006009
(1727704205.242334) can0 00000259#FFFE6B950000001C
(1727704205.242478) can0 00000279#FFFFFFFF80006009
(1727704205.243831) can0 00000257#0000E3A000000004
(1727704205.243975) can0 00000277#0000001580006001
(1727704205.245731) can0 00000258#000069AB00000000
(1727704205.245872) can0 00000278#0000000380006009
(1727704205.247332) can0 00000259#FFFE6B9500000004
(1727704205.247476) can0 00000279#FFFFFFFF80006009
(1727704205.248831) can0 00000257#0000E3A000000000
(1727704205.248973) can0 00000277#0000001580006001
(1727704205.250726) can0 00000258#000069AB00000010
(1727704205.250871) can0 00000278#0000000380006009
(1727704205.252331) can0 00000259#FFFE6B95FFFFFFC8
(1727704205.252474) can0 00000279#FFFFFFFF80006009
(1727704205.253825) can0 00000257#0000E3A00000016C
(1727704205.253970) can0 00000277#0000001580006001
(1727704205.255724) can0 00000258#000069AB00000000
(1727704205.255869) can0 00000278#0000000380006009
(1727704205.257331) can0 00000259#FFFE6B94FFFFFFE4
(1727704205.257473) can0 00000279#FFFFFFFF80006009
(1727704205.258823) can0 00000257#0000E3A0FFFFFFD0
(1727704205.258968) can0 00000277#0000001580006001
(1727704205.259326) can0 00000656#8013000000000000
(1727704205.260722) can0 00000258#000069ABFFFFFF10
(1727704205.260867) can0 00000278#0000000380006009
(1727704205.262327) can0 00000259#FFFE6B94FFFFFEA0
(1727704205.262471) can0 00000279#FFFFFFFF80006009
(1727704205.262832) can0 00000658#8013000000000000
(1727704205.263824) can0 00000257#0000E3A0FFFFFFBC
(1727704205.263969) can0 00000277#0000001580006001
(1727704205.265720) can0 00000258#000069AB00000000
(1727704205.265865) can0 00000278#0000000380006009
(1727704205.266221) can0 00000657#8013000000000000
(1727704205.267325) can0 00000259#FFFE6B94FFFFFFF0
(1727704205.267469) can0 00000279#FFFFFFFF80006009
(1727704205.268822) can0 00000257#0000E3A0FFFFFF80
(1727704205.268967) can0 00000277#0000001580006001
(1727704205.270720) can0 00000258#000069AB00000000
(1727704205.270865) can0 00000278#0000000380006009
(1727704205.272326) can0 00000259#FFFE6B9400000000
(1727704205.272470) can0 00000279#FFFFFFFF80006009
(1727704205.273820) can0 00000257#0000E3A000000000
(1727704205.273965) can0 00000277#0000001580006001
(1727704205.275716) can0 00000258#000069AB00000084
(1727704205.275861) can0 00000278#0000000380006009
(1727704205.277324) can0 00000259#FFFE6B9400000000
(1727704205.277468) can0 00000279#FFFFFFFF80006009
(1727704205.278818) can0 00000257#0000E3A000000000
(1727704205.278963) can0 00000277#0000001580006001
(1727704205.280714) can0 00000258#000069AB000001B8
(1727704205.280859) can0 00000278#0000000380006009
(1727704205.282321) can0 00000259#FFFE6B94FFFFFFC4
(1727704205.282465) can0 00000279#FFFFFFFF80006009
(1727704205.283815) can0 00000257#0000E3A00000000C
(1727704205.283960) can0 00000277#0000001580006001
(1727704205.285713) can0 00000258#000069AB00000110
(1727704205.285858) can0 00000278#0000000380006009
(1727704205.287319) can0 00000259#FFFE6B9400000078
(1727704205.287463) can0 00000279#FFFFFFFF80006009
(1727704205.288815) can0 00000257#0000E3A0FFFFFF84
(1727704205.288960) can0 00000277#0000001580006001
(1727704205.290712) can0 00000258#000069AB000001AC
(1727704205.290857) can0 00000278#0000000380006009
(1727704205.292319) can0 00000259#FFFE6B9400000040
(1727704205.292463) can0 00000279#FFFFFFFF80006009
(1727704205.293813) can0 00000257#0000E3A0FFFFFF88
(1727704205.293958) can0 00000277#0000001680006001
(1727704205.295709) can0 00000258#000069AB000000D0
(1727704205.295854) can0 00000278#0000000380006009
(1727704205.297317) can0 00000259#FFFE6B94FFFFFF98
(1727704205.297461) can0 00000279#FFFFFFFF80006009
(1727704205.298812) can0 00000257#0000E3A0FFFFFFCC
(1727704205.298957) can0 00000277#0000001580006001
(1727704205.300709) can0 00000258#000069AB00000000
(1727704205.300854) can0 00000278#0000000380006009
(1727704205.302315) can0 00000259#FFFE6B94FFFFFFAC
(1727704205.302459) can0 00000279#FFFFFFFF80006009
(1727704205.303809) can0 00000257#0000E3A000000160
(1727704205.303954) can0 00000277#0000001580006001
(1727704205.305707) can0 00000258#000069AB00000104
(1727704205.305853) can0 00000278#0000000380006009
(1727704205.307313) can0 00000259#FFFE6B940000012C
(1727704205.307457) can0 00000279#FFFFFFFF80006009
(1727704205.308809) can0 00000257#0000E3A0FFFFFF84
(1727704205.308954) can0 00000277#0000001580006001
(1727704205.309135) can0 00001040#
(1727704205.309334) can0 00000656#8013000000000000
(1727704205.310707) can0 00000258#000069ABFFFFFFC8
(1727704205.310852) can0 00000278#0000000380006009
(1727704205.312310) can0 00000259#FFFE6B94FFFFFF18
(1727704205.312454) can0 00000279#FFFFFFFF80006009
(1727704205.312816) can0 00000658#8013000000000000
(1727704205.313806) can0 00000257#0000E3A0FFFFFFD0
(1727704205.313951) can0 00000277#0000001680006001
(1727704205.315704) can0 00000258#000069ABFFFFFDFC
(1727704205.315849) can0 00000278#0000000380006009
(1727704205.316205) can0 00000657#8013000000000000
(1727704205.317309) can0 00000259#FFFE6B94FFFFFFF0
(1727704205.317453) can0 00000279#FFFFFFFF80006009
(1727704205.318806) can0 00000257#0000E3A000000000
(1727704205.318951) can0 00000277#0000001680006001
(1727704205.320703) can0 00000258#000069ABFFFFFF1C
(1727704205.320848) can0 00000278#0000000380006009
(1727704205.322310) can0 00000259#FFFE6B9400000000
(1727704205.322454) can0 00000279#FFFFFFFF80006009
(1727704205.323804) can0 00000257#0000E3A000000000
(1727704205.323949) can0 00000277#0000001580006001
(1727704205.325702) can0 00000258#000069ABFFFFFF00
(1727704205.325847) can0 00000278#0000000380006009
(1727704205.327307) can0 00000259#FFFE6B9400000010
(1727704205.327451) can0 00000279#FFFFFFFF80006009
(1727704205.328802) can0 00000257#0000E3A000000000
(1727704205.328947) can0 00000277#0000001680006001
(1727704205.330700) can0 00000258#000069AB00000138
(1727704205.330845) can0 00000278#0000000380006009
(1727704205.332307) can0 00000259#FFFE6B9400000000
(1727704205.332451) can0 00000279#FFFFFFFF80006009
(1727704205.333799) can0 00000257#0000E3A0FFFFFFD0
(1727704205.333944) can0 00000277#0000001680006001
(1727704205.335699) can0 00000258#000069ABFFFFFFFC
(1727704205.335844) can0 00000278#0000000380006009
(1727704205.337306) can0 00000259#FFFE6B9400000000
(1727704205.337450) can0 00000279#FFFFFFFF80006009
(1727704205.338799) can0 00000257#0000E3A0FFFFFFF8
(1727704205.338945) can0 00000277#0000001680006001
(1727704205.340697) can0 00000258#000069AB00000000
(1727704205.340842) can0 00000278#0000000380006009
(1727704205.342303) can0 00000259#FFFE6B9400000058
(1727704205.342447) can0 00000279#FFFFFFFF80006009
(1727704205.343796) can0 00000257#0000E3A0000000B8
(1727704205.343942) can0 00000277#0000001580006001
(1727704205.345696) can0 00000258#000069AB00000000
(1727704205.345841) can0 00000278#0000000380006009
(1727704205.347302) can0 00000259#FFFE6B9400000000
(1727704205.347446) can0 00000279#FFFFFFFF80006009
(1727704205.348796) can0 00000257#0000E3A0FFFFFF38
(1727704205.348941) can0 00000277#0000001680006001
(1727704205.350693) can0 00000258#000069ABFFFFFF9C
(1727704205.350838) can0 00000278#0000000380006009
(1727704205.352300) can0 00000259#FFFE6B9400000000
(1727704205.352444) can0 00000279#FFFFFFFF80006009
(1727704205.353793) can0 00000257#0000E3A000000118
(1727704205.353938) can0 00000277#0000001680006001
(1727704205.355694) can0 00000258#000069AB00000140
(1727704205.355839) can0 00000278#0000000380006009
(1727704205.357298) can0 00000259#FFFE6B950000001C
(1727704205.357442) can0 00000279#FFFFFFFF80006009
(1727704205.358791) can0 00000257#0000E3A000000064
(1727704205.358937) can0 00000277#0000001580006001
(1727704205.359294) can0 00000656#8013000000000000
(1727704205.360690) can0 00000258#000069AB00000004
(1727704205.360837) can0 00000278#0000000380006009
(1727704205.362297) can0 00000259#FFFE6B95FFFFFFFC
(1727704205.362441) can0 00000279#FFFFFFFF80006009
(1727704205.362801) can0 00000658#8013000000000000
(1727704205.363790) can0 00000257#0000E3A0FFFFFF94
(1727704205.363937) can0 00000277#0000001580006001
(1727704205.365688) can0 00000258#000069ABFFFFFF9C
(1727704205.365837) can0 00000278#0000000380006009
(1727704205.366189) can0 00000657#8013000000000000
(1727704205.367294) can0 00000259#FFFE6B95FFFFFF88
(1727704205.367438) can0 00000279#FFFFFFFF80006009
(1727704205.368789) can0 00000257#0000E3A0FFFFFFB0
(1727704205.368938) can0 00000277#0000001580006001
(1727704205.370687) can0 00000258#000069ABFFFFFFD4
(1727704205.370832) can0 00000278#0000000380006009
(1727704205.372291) can0 00000259#FFFE6B9500000118
(1727704205.372438) can0 00000279#FFFFFFFF80006009
(1727704205.373788) can0 00000257#0000E3A000000000
(1727704205.373933) can0 00000277#0000001580006001
(1727704205.375685) can0 00000258#000069AB000000F0
(1727704205.375831) can0 00000278#0000000380006009
(1727704205.377290) can0 00000259#FFFE6B95FFFFFE80
(1727704205.377438) can0 00000279#FFFFFFFF80006009
(1727704205.378786) can0 00000257#0000E3A0FFFFFF60
(1727704205.378931) can0 00000277#0000001580006001
(1727704205.380684) can0 00000258#000069AB000000A0
(1727704205.380829) can0 00000278#0000000380006009
(1727704205.382289) can0 00000259#FFFE6B95FFFFFFB8
(1727704205.382434) can0 00000279#FFFFFFFF80006009
(1727704205.383783) can0 00000257#0000E3A000000210
(1727704205.383928) can0 00000277#0000001580006001
(1727704205.385683) can0 00000258#000069AB00000000
(1727704205.385828) can0 00000278#0000000380006009
(1727704205.387288) can0 00000259#FFFE6B9500000204
(1727704205.387432) can0 00000279#FFFFFFFF80006009
(1727704205.388782) can0 00000257#0000E3A00000002C
(1727704205.388927) can0 00000277#0000001580006001
(1727704205.390682) can0 00000258#000069AB00000000
(1727704205.390827) can0 00000278#0000000380006009
(1727704205.392286) can0 00000259#FFFE6B95000000EC
(1727704205.392430) can0 00000279#FFFFFFFF80006009
(1727704205.393782) can0 00000257#0000E3A0FFFFFFCC
(1727704205.393927) can0 00000277#0000001580006001
(1727704205.395680) can0 00000258#000069AB00000000
(1727704205.395825) can0 00000278#0000000380006009
(1727704205.397284) can0 00000259#FFFE6B95FFFFFFC8
(1727704205.397428) can0 00000279#FFFFFFFF80006009
(1727704205.398778) can0 00000257#0000E3A0000001A4
(1727704205.398923) can0 00000277#0000001580006001
(1727704205.400678) can0 00000258#000069AB00000000
(1727704205.400823) can0 00000278#0000000380006009
(1727704205.402283) can0 00000259#FFFE6B9500000024
(1727704205.402427) can0 00000279#FFFFFFFF80006009
(1727704205.403777) can0 00000257#0000E3A000000054
(1727704205.403923) can0 00000277#0000001480006001
(1727704205.405677) can0 00000258#000069AB0000005C
(1727704205.405823) can0 00000278#0000000380006009
(1727704205.407283) can0 00000259#FFFE6B9500000000
(1727704205.407427) can0 00000279#FFFFFFFF80006009
(1727704205.408777) can0 00000257#0000E3A0FFFFFF70
(1727704205.408922) can0 00000277#0000001580006001
(1727704205.409278) can0 00000656#8013000000000000
(1727704205.410676) can0 00000258#000069ABFFFFFFFC
(1727704205.410821) can0 00000278#0000000380006009
(1727704205.412281) can0 00000259#FFFE6B9500000000
(1727704205.412426) can0 00000279#FFFFFFFF80006009
(1727704205.412785) can0 00000658#8013000000000000
(1727704205.413775) can0 00000257#0000E3A000000000
(1727704205.413920) can0 00000277#0000001580006001
(1727704205.415674) can0 00000258#000069AB00000000
(1727704205.415819) can0 00000278#0000000380006009
(1727704205.416174) can0 00000657#8013000000000000
(1727704205.417279) can0 00000259#FFFE6B95FFFFFFCC
(1727704205.417423) can0 00000279#FFFFFFFF80006009
(1727704205.418774) can0 00000257#0000E3A0FFFFFFF8
(1727704205.418919) can0 00000277#0000001580006001
(1727704205.420673) can0 00000258#000069ABFFFFFFF8
(1727704205.420818) can0 00000278#0000000380006009
(1727704205.422276) can0 00000259#FFFE6B95FFFFFFD4
(1727704205.422421) can0 00000279#FFFFFFFE80006009
(1727704205.423770) can0 00000257#0000E3A00000014C
(1727704205.423916) can0 00000277#0000001480006001
(1727704205.425670) can0 00000258#000069AB00000000
(1727704205.425815) can0 00000278#0000000380006009
(1727704205.427275) can0 00000259#FFFE6B95FFFFFF88
(1727704205.427419) can0 00000279#FFFFFFFF80006009
(1727704205.428768) can0 00000257#0000E3A0000000BC
(1727704205.428913) can0 00000277#0000001580006001
(1727704205.430669) can0 00000258#000069AB0000004C
(1727704205.430814) can0 00000278#0000000380006009
(1727704205.432275) can0 00000259#FFFE6B9500000000
(1727704205.432419) can0 00000279#FFFFFFFF80006009
(1727704205.433767) can0 00000257#0000E3A0FFFFFF88
(1727704205.433912) can0 00000277#0000001580006001
(1727704205.435668) can0 00000258#000069AB00000070
(1727704205.435813) can0 00000278#0000000380006009
(1727704205.437273) can0 00000259#FFFE6B9500000000
(1727704205.437417) can0 00000279#FFFFFFFF80006009
(1727704205.438767) can0 00000257#0000E3A0FFFFFFAC
(1727704205.438911) can0 00000277#0000001580006001
(1727704205.440667) can0 00000258#000069ABFFFFFF20
(1727704205.440812) can0 00000278#0000000380006009
(1727704205.442270) can0 00000259#FFFE6B95FFFFFF88
(1727704205.442414) can0 00000279#FFFFFFFF80006009
(1727704205.443764) can0 00000257#0000E3A000000144
(1727704205.443909) can0 00000277#0000001580006001
(1727704205.445664) can0 00000258#000069ABFFFFFF1C
(1727704205.445809) can0 00000278#0000000380006009
(1727704205.447271) can0 00000259#FFFE6B9500000000
(1727704205.447415) can0 00000279#FFFFFFFF80006009
(1727704205.448763) can0 00000257#0000E3A0FFFFFF20
(1727704205.448908) can0 00000277#0000001580006001
(1727704205.450662) can0 00000258#000069ABFFFFFFAC
(1727704205.450807) can0 00000278#0000000380006009
(1727704205.452269) can0 00000259#FFFE6B9500000000
(1727704205.452413) can0 00000279#FFFFFFFF80006009
(1727704205.453761) can0 00000257#0000E3A000000180
(1727704205.453907) can0 00000277#0000001580006001
(1727704205.455661) can0 00000258#000069AB00000000
(1727704205.455806) can0 00000278#0000000380006009
(1727704205.457264) can0 00000259#FFFE6B94FFFFFD88
(1727704205.457408) can0 00000279#FFFFFFFF80006009
(1727704205.458761) can0 00000257#0000E3A0FFFFFF24
(1727704205.458906) can0 00000277#0000001580006001
(1727704205.459263) can0 00000656#8013000000000000
(1727704205.460659) can0 00000258#000069AB00000000
(1727704205.460804) can0 00000278#0000000380006009
(1727704205.462264) can0 00000259#FFFE6B9500000160
(1727704205.462408) can0 00000279#FFFFFFFF80006009
(1727704205.462769) can0 00000658#8013000000000000
(1727704205.463759) can0 00000257#0000E3A000000004
(1727704205.463904) can0 00000277#0000001580006001
(1727704205.465659) can0 00000258#000069AB00000080
(1727704205.465804) can0 00000278#0000000380006009
(1727704205.466159) can0 00000657#8013000000000000
(1727704205.467263) can0 00000259#FFFE6B94FFFFFFF4
(1727704205.467407) can0 00000279#FFFFFFFF80006009
(1727704205.468756) can0 00000257#0000E3A0FFFFFF50
(1727704205.468901) can0 00000277#0000001580006001
(1727704205.470656) can0 00000258#000069ABFFFFFFA4
(1727704205.470801) can0 00000278#0000000380006009
(1727704205.472263) can0 00000259#FFFE6B9400000000
(1727704205.472407) can0 00000279#FFFFFFFF80006009
(1727704205.473753) can0 00000257#0000E3A0FFFFFE2C
(1727704205.473898) can0 00000277#0000001580006001
(1727704205.475654) can0 00000258#000069AB00000004
(1727704205.475799) can0 00000278#0000000380006009
(1727704205.477261) can0 00000259#FFFE6B9400000000
(1727704205.477405) can0 00000279#FFFFFFFF80006009
(1727704205.478754) can0 00000257#0000E3A000000154
(1727704205.478900) can0 00000277#0000001580006001
(1727704205.480653) can0 00000258#000069ABFFFFFF48
(1727704205.480798) can0 00000278#0000000380006009
(1727704205.482260) can0 00000259#FFFE6B9400000000
(1727704205.482404) can0 00000279#FFFFFFFF80006009
(1727704205.483753) can0 00000257#0000E3A0FFFFFFDC
(1727704205.483898) can0 00000277#0000001580006001
(1727704205.485652) can0 00000258#000069AB00000000
(1727704205.485797) can0 00000278#0000000380006009
(1727704205.487258) can0 00000259#FFFE6B9400000000
(1727704205.487402) can0 00000279#FFFFFFFF80006009
(1727704205.488750) can0 00000257#0000E3A0FFFFFF44
(1727704205.488895) can0 00000277#0000001580006001
(1727704205.490650) can0 00000258#000069AB00000000
(1727704205.490796) can0 00000278#0000000380006009
(1727704205.492256) can0 00000259#FFFE6B9400000000
(1727704205.492400) can0 00000279#FFFFFFFF80006009
(1727704205.493750) can0 00000257#0000E3A0FFFFFF98
(1727704205.493895) can0 00000277#0000001580006001
(1727704205.495649) can0 00000258#000069AB00000000
(1727704205.495794) can0 00000278#0000000380006009
(1727704205.497254) can0 00000259#FFFE6B94FFFFFFE0
(1727704205.497398) can0 00000279#FFFFFFFF80006009
(1727704205.498748) can0 00000257#0000E3A000000080
(1727704205.498893) can0 00000277#0000001580006001
(1727704205.500648) can0 00000258#000069AB00000000
(1727704205.500793) can0 00000278#0000000380006009
(1727704205.502253) can0 00000259#FFFE6B9400000000
(1727704205.502397) can0 00000279#FFFFFFFF80006009
(1727704205.503745) can0 00000257#0000E3A0FFFFFFD4
(1727704205.503890) can0 00000277#0000001580006001
(1727704205.505645) can0 00000258#000069ABFFFFFF68
(1727704205.505790) can0 00000278#0000000380006009
(1727704205.507251) can0 00000259#FFFE6B9400000000
(1727704205.507396) can0 00000279#FFFFFFFF80006009
(1727704205.508745) can0 00000257#0000E3A0000000C0
(1727704205.508888) can0 00000277#0000001580006001
(1727704205.509246) can0 00000656#8013000000000000
(1727704205.510645) can0 00000258#000069ABFFFFFE78
(1727704205.510788) can0 00000278#0000000380006009
(1727704205.512250) can0 00000259#FFFE6B9400000000
(1727704205.512394) can0 00000279#FFFFFFFF80006009
(1727704205.512753) can0 00000658#8013000000000000
(1727704205.512827) can0 00001040#
(1727704205.513741) can0 00000257#0000E3A000000174
(1727704205.513886) can0 00000277#0000001580006001
(1727704205.515640) can0 00000258#000069AB000000E8
(1727704205.515785) can0 00000278#0000000380006009
(1727704205.516146) can0 00000657#8013000000000000
(1727704205.517247) can0 00000259#FFFE6B9500000154
(1727704205.517391) can0 00000279#FFFFFFFF80006009
(1727704205.518741) can0 00000257#0000E3A0FFFFFFF4
(1727704205.518886) can0 00000277#0000001580006001
(1727704205.520639) can0 00000258#000069AB000000D0
(1727704205.520784) can0 00000278#0000000380006009
(1727704205.522246) can0 00000259#FFFE6B9500000130
(1727704205.522387) can0 00000279#FFFFFFFF80006009
(1727704205.523737) can0 00000257#0000E3A0000001CC
(1727704205.523882) can0 00000277#0000001580006001
(1727704205.525638) can0 00000258#000069AB000000DC
(1727704205.525783) can0 00000278#0000000380006009
(1727704205.527246) can0 00000259#FFFE6B9500000000
(1727704205.527390) can0 00000279#FFFFFFFF80006009
(1727704205.528737) can0 00000257#0000E3A0FFFFFFC8
(1727704205.528882) can0 00000277#0000001580006001
(1727704205.530637) can0 00000258#000069AB00000114
(1727704205.530782) can0 00000278#0000000380006009
(1727704205.532247) can0 00000259#FFFE6B9500000000
(1727704205.532388) can0 00000279#FFFFFFFF80006009
(1727704205.533735) can0 00000257#0000E3A0FFFFFF44
(1727704205.533881) can0 00000277#0000001580006001
(1727704205.535635) can0 00000258#000069AB00000068
(1727704205.535780) can0 00000278#0000000380006009
(1727704205.537240) can0 00000259#FFFE6B950000018C
(1727704205.537384) can0 00000279#FFFFFFFF80006009
(1727704205.538734) can0 00000257#0000E3A0FFFFFF94
(1727704205.538879) can0 00000277#0000001580006001
(1727704205.540633) can0 00000258#000069AB00000094
(1727704205.540778) can0 00000278#0000000380006009
(1727704205.542240) can0 00000259#FFFE6B9500000120
(1727704205.542384) can0 00000279#FFFFFFFF80006009
(1727704205.543733) can0 00000257#0000E3A0FFFFFFB0
(1727704205.543878) can0 00000277#0000001580006001
(1727704205.545633) can0 00000258#000069ABFFFFFFFC
(1727704205.545778) can0 00000278#0000000380006009
(1727704205.547237) can0 00000259#FFFE6B95000000E0
(1727704205.547381) can0 00000279#FFFFFFFF80006009
(1727704205.548732) can0 00000257#0000E3A0FFFFFFF8
(1727704205.548877) can0 00000277#0000001580006001
(1727704205.550631) can0 00000258#000069AB00000000
(1727704205.550776) can0 00000278#0000000380006009
(1727704205.552235) can0 00000259#FFFE6B9500000098
(1727704205.552378) can0 00000279#FFFFFFFF80006009
(1727704205.553730) can0 00000257#0000E3A0FFFFFF70
(1727704205.553875) can0 00000277#0000001580006001
(1727704205.555630) can0 00000258#000069AB000000D8
(1727704205.555775) can0 00000278#0000000380006009
(1727704205.557235) can0 00000259#FFFE6B95FFFFFF54
(1727704205.557378) can0 00000279#FFFFFFFF80006009
(1727704205.558728) can0 00000257#0000E3A0000000FC
(1727704205.558873) can0 00000277#0000001580006001
(1727704205.559231) can0 00000656#8013000000000000
(1727704205.560628) can0 00000258#000069ABFFFFFED0
(1727704205.560773) can0 00000278#0000000380006009
(1727704205.562233) can0 00000259#FFFE6B9500000054
(1727704205.562377) can0 00000279#FFFFFFFF80006009
(1727704205.562738) can0 00000658#8013000000000000
(1727704205.563725) can0 00000257#0000E3A0FFFFFE98
(1727704205.563870) can0 00000277#0000001580006001
(1727704205.565628) can0 00000258#000069ABFFFFFFF8
(1727704205.565773) can0 00000278#0000000380006009
(1727704205.566127) can0 00000657#8013000000000000
(1727704205.567233) can0 00000259#FFFE6B9500000000
(1727704205.567377) can0 00000279#FFFFFFFF80006009
(1727704205.568724) can0 00000257#0000E3A0000001EC
(1727704205.568869) can0 00000277#0000001580006001
(1727704205.570625) can0 00000258#000069AB000001C0
(1727704205.570770) can0 00000278#0000000380006009
(1727704205.572231) can0 00000259#FFFE6B95FFFFFFE0
(1727704205.572374) can0 00000279#FFFFFFFF80006009
(1727704205.573723) can0 00000257#0000E3A0000000F0
(1727704205.573868) can0 00000277#0000001580006001
(1727704205.575624) can0 00000258#000069ABFFFFFE88
(1727704205.575769) can0 00000278#0000000380006009
(1727704205.577228) can0 00000259#FFFE6B95000001C0
(1727704205.577372) can0 00000279#FFFFFFFF80006009
(1727704205.578721) can0 00000257#0000E3A0FFFFFFD4
(1727704205.578866) can0 00000277#0000001580006001
(1727704205.580621) can0 00000258#000069AB000000DC
(1727704205.580766) can0 00000278#0000000380006009
(1727704205.582228) can0 00000259#FFFE6B950000025C
(1727704205.582372) can0 00000279#FFFFFFFE80006009
(1727704205.583720) can0 00000257#0000E3A0000002A0
(1727704205.583865) can0 00000277#0000001580006001
(1727704205.585620) can0 00000258#000069AB000000A4
(1727704205.585765) can0 00000278#0000000380006009
(1727704205.587228) can0 00000259#FFFE6B950000000C
(1727704205.587369) can0 00000279#FFFFFFFE80006009
(1727704205.588717) can0 00000257#0000E3A0000001C4
(1727704205.588862) can0 00000277#0000001580006001
(1727704205.590618) can0 00000258#000069AB000000CC
(1727704205.590763) can0 00000278#0000000380006009
(1727704205.592228) can0 00000259#FFFE6B9500000000
(1727704205.592369) can0 00000279#FFFFFFFF80006009
(1727704205.593717) can0 00000257#0000E3A0FFFFFF84
(1727704205.593862) can0 00000277#0000001580006001
(1727704205.595619) can0 00000258#000069ABFFFFFFF8
(1727704205.595764) can0 00000278#0000000380006009
(1727704205.597228) can0 00000259#FFFE6B9500000000
(1727704205.597367) can0 00000279#FFFFFFFF80006009
(1727704205.598715) can0 00000257#0000E3A0FFFFFFF8
(1727704205.598861) can0 00000277#0000001580006001
(1727704205.600615) can0 00000258#000069AB00000004
(1727704205.600760) can0 00000278#0000000380006009
(1727704205.602222) can0 00000259#FFFE6B9500000000
(1727704205.602367) can0 00000279#FFFFFFFE80006009
(1727704205.603714) can0 00000257#0000E3A0FFFFFFF4
(1727704205.603859) can0 00000277#0000001580006001
(1727704205.605613) can0 00000258#000069ABFFFFFEF4
(1727704205.605758) can0 00000278#0000000380006009
(1727704205.607220) can0 00000259#FFFE6B9500000000
(1727704205.607365) can0 00000279#FFFFFFFE80006009
(1727704205.608711) can0 00000257#0000E3A0000001CC
(1727704205.608856) can0 00000277#0000001580006001
(1727704205.609214) can0 00000656#8013000000000000
(1727704205.610612) can0 00000258#000069ABFFFFFF4C
(1727704205.610758) can0 00000278#0000000280006009
(1727704205.612218) can0 00000259#FFFE6B95000000C8
(1727704205.612359) can0 00000279#FFFFFFFF80006009
(1727704205.612721) can0 00000658#8013000000000000
(1727704205.613710) can0 00000257#0000E3A0FFFFFFC4
(1727704205.613855) can0 00000277#0000001580006001
(1727704205.615612) can0 00000258#000069ABFFFFFF98
(1727704205.615758) can0 00000278#0000000280006009
(1727704205.616112) can0 00000657#8013000000000000
(1727704205.617218) can0 00000259#FFFE6B95FFFFFFFC
(1727704205.617360) can0 00000279#FFFFFFFF80006009
(1727704205.618708) can0 00000257#0000E3A0FFFFFF1C
(1727704205.618853) can0 00000277#0000001580006001
(1727704205.620608) can0 00000258#000069AB000000D4
(1727704205.620753) can0 00000278#0000000380006009
(1727704205.622214) can0 00000259#FFFE6B95FFFFFE08
(1727704205.622358) can0 00000279#FFFFFFFF80006009
(1727704205.623708) can0 00000257#0000E3A0FFFFFFA0
(1727704205.623853) can0 00000277#0000001580006001
(1727704205.625607) can0 00000258#000069AB00000004
(1727704205.625752) can0 00000278#0000000380006009
(1727704205.627214) can0 00000259#FFFE6B95FFFFFF48
(1727704205.627358) can0 00000279#FFFFFFFF80006009
(1727704205.628705) can0 00000257#0000E3A000000008
(1727704205.628852) can0 00000277#0000001580006001
(1727704205.630606) can0 00000258#000069AB00000000
(1727704205.630752) can0 00000278#0000000380006009
(1727704205.632212) can0 00000259#FFFE6B9500000000
(1727704205.632356) can0 00000279#FFFFFFFF80006009
(1727704205.633703) can0 00000257#0000E3A000000008
(1727704205.633852) can0 00000277#0000001580006001
(1727704205.635605) can0 00000258#000069AB00000000
(1727704205.635752) can0 00000278#0000000380006009
(1727704205.637209) can0 00000259#FFFE6B9500000004
(1727704205.637353) can0 00000279#FFFFFFFF80006009
(1727704205.638705) can0 00000257#0000E3A0FFFFFF10
(1727704205.638852) can0 00000277#0000001580006001
(1727704205.640603) can0 00000258#000069AB00000000
(1727704205.640753) can0 00000278#0000000380006009
(1727704205.642207) can0 00000259#FFFE6B95000000A4
(1727704205.642353) can0 00000279#FFFFFFFF80006009
(1727704205.643701) can0 00000257#0000E3A0FFFFFF28
(1727704205.643846) can0 00000277#0000001580006001
(1727704205.645602) can0 00000258#000069AB00000000
(1727704205.645748) can0 00000278#0000000380006009
(1727704205.647206) can0 00000259#FFFE6B95FFFFFFF8
(1727704205.647353) can0 00000279#FFFFFFFF80006009
(1727704205.648699) can0 00000257#0000E3A0FFFFFF54
(1727704205.648844) can0 00000277#0000001580006001
(1727704205.650601) can0 00000258#000069AB00000000
(1727704205.650746) can0 00000278#0000000380006009
(1727704205.652204) can0 00000259#FFFE6B95FFFFFFCC
(1727704205.652349) can0 00000279#FFFFFFFF80006009
(1727704205.653696) can0 00000257#0000E3A000000084
(1727704205.653841) can0 00000277#0000001580006001
(1727704205.655599) can0 00000258#000069AB00000000
(1727704205.655744) can0 00000278#0000000380006009
(1727704205.657203) can0 00000259#FFFE6B950000002C
(1727704205.657347) can0 00000279#FFFFFFFF80006009
(1727704205.658695) can0 00000257#0000E3A00000000C
(1727704205.658840) can0 00000277#0000001580006001
(1727704205.659198) can0 00000656#8013000000000000
(1727704205.660597) can0 00000258#000069AB00000000
(1727704205.660742) can0 00000278#0000000380006009
(1727704205.662203) can0 00000259#FFFE6B9500000000
(1727704205.662347) can0 00000279#FFFFFFFF80006009
(1727704205.662706) can0 00000658#8013000000000000
(1727704205.663696) can0 00000257#0000E3A0FFFFFF48
(1727704205.663841) can0 00000277#0000001580006001
(1727704205.665596) can0 00000258#000069AB00000078
(1727704205.665741) can0 00000278#0000000380006009
(1727704205.666095) can0 00000657#8013000000000000
(1727704205.667201) can0 00000259#FFFE6B9500000000
(1727704205.667345) can0 00000279#FFFFFFFF80006009
(1727704205.668693) can0 00000257#0000E3A000000000
(1727704205.668838) can0 00000277#0000001580006001
(1727704205.670595) can0 00000258#000069AB00000000
(1727704205.670740) can0 00000278#0000000380006009
(1727704205.672198) can0 00000259#FFFE6B9500000050
(1727704205.672342) can0 00000279#FFFFFFFF80006009
(1727704205.673691) can0 00000257#0000E3A0FFFFFFF0
(1727704205.673836) can0 00000277#0000001580006001
(1727704205.675593) can0 00000258#000069AB00000000
(1727704205.675738) can0 00000278#0000000380006009
(1727704205.677195) can0 00000259#FFFE6B94FFFFFF6C
(1727704205.677340) can0 00000279#FFFFFFFF80006009
(1727704205.678689) can0 00000257#0000E3A000000008
(1727704205.678834) can0 00000277#0000001580006001
(1727704205.680591) can0 00000258#000069AB00000000
(1727704205.680736) can0 00000278#0000000380006009
(1727704205.682197) can0 00000259#FFFE6B9400000000
(1727704205.682341) can0 00000279#FFFFFFFF80006009
(1727704205.683688) can0 00000257#0000E3A000000000
(1727704205.683833) can0 00000277#0000001580006001
(1727704205.685590) can0 00000258#000069ABFFFFFFE0
(1727704205.685735) can0 00000278#0000000380006009
(1727704205.687195) can0 00000259#FFFE6B9400000000
(1727704205.687339) can0 00000279#FFFFFFFF80006009
(1727704205.688686) can0 00000257#0000E3A0FFFFFFD0
(1727704205.688831) can0 00000277#0000001680006001
(1727704205.690588) can0 00000258#000069AB00000000
(1727704205.690733) can0 00000278#0000000380006009
(1727704205.692193) can0 00000259#FFFE6B9400000000
(1727704205.692337) can0 00000279#FFFFFFFF80006009
(1727704205.693684) can0 00000257#0000E3A0FFFFFF8C
(1727704205.693829) can0 00000277#0000001680006001
(1727704205.695586) can0 00000258#000069AB00000000
(1727704205.695731) can0 00000278#0000000380006009
(1727704205.697189) can0 00000259#FFFE6B9500000188
(1727704205.697333) can0 00000279#FFFFFFFF80006009
(1727704205.698684) can0 00000257#0000E3A0FFFFFFF8
(1727704205.698829) can0 00000277#0000001680006001
(1727704205.700585) can0 00000258#000069AB00000000
(1727704205.700730) can0 00000278#0000000380006009
(1727704205.702190) can0 00000259#FFFE6B9500000000
(1727704205.702334) can0 00000279#FFFFFFFF80006009
(1727704205.703681) can0 00000257#0000E3A0000000D0
(1727704205.703826) can0 00000277#0000001680006001
(1727704205.705584) can0 00000258#000069AB00000000
(1727704205.705729) can0 00000278#0000000380006009
(1727704205.707188) can0 00000259#FFFE6B9500000000
(1727704205.707332) can0 00000279#FFFFFFFF80006009
(1727704205.708680) can0 00000257#0000E3A000000000
(1727704205.708825) can0 00000277#0000001680006001
(1727704205.709182) can0 00000656#8013000000000000
(1727704205.710582) can0 00000258#000069ABFFFFFFE8
(1727704205.710727) can0 00000278#0000000380006009
(1727704205.712187) can0 00000259#FFFE6B9500000000
(1727704205.712331) can0 00000279#FFFFFFFF80006009
(1727704205.712690) can0 00000658#8013000000000000
(1727704205.713678) can0 00000257#0000E3A000000000
(1727704205.713823) can0 00000277#0000001680006001
(1727704205.715579) can0 00000258#000069AB000000C4
(1727704205.715724) can0 00000278#0000000380006009
(1727704205.716080) can0 00000657#8013000000000000
(1727704205.717185) can0 00000259#FFFE6B9500000000
(1727704205.717329) can0 00000279#FFFFFFFF80006009
(1727704205.718677) can0 00000257#0000E3A0FFFFFF80
(1727704205.718822) can0 00000277#0000001680006001
(1727704205.719575) can0 00001040#
(1727704205.720580) can0 00000258#000069ABFFFFFFF8
(1727704205.720939) can0 00000278#0000000380006009
(1727704205.722182) can0 00000259#FFFE6B95FFFFFFF8
(1727704205.722327) can0 00000279#FFFFFFFF80006009
(1727704205.723675) can0 00000257#0000E3A000000004
(1727704205.723820) can0 00000277#0000001580006001
(1727704205.725576) can0 00000258#000069ABFFFFFF4C
(1727704205.725721) can0 00000278#0000000380006009
(1727704205.727182) can0 00000259#FFFE6B95FFFFFF68
(1727704205.727326) can0 00000279#FFFFFFFF80006009
(1727704205.728671) can0 00000257#0000E3A000000244
(1727704205.728816) can0 00000277#0000001580006001
(1727704205.730576) can0 00000258#000069ABFFFFFFFC
(1727704205.730721) can0 00000278#0000000380006009
(1727704205.732178) can0 00000259#FFFE6B95FFFFFD58
(1727704205.732322) can0 00000279#FFFFFFFF80006009
(1727704205.733671) can0 00000257#0000E3A0FFFFFFD0
(1727704205.733816) can0 00000277#0000001580006001
(1727704205.735574) can0 00000258#000069AB000000C0
(1727704205.735719) can0 00000278#0000000380006009
(1727704205.737178) can0 00000259#FFFE6B95FFFFFF14
(1727704205.737322) can0 00000279#FFFFFFFF80006009
(1727704205.738670) can0 00000257#0000E3A0FFFFFF6C
(1727704205.738816) can0 00000277#0000001580006001
(1727704205.740570) can0 00000258#000069AB0000010C
(1727704205.740715) can0 00000278#0000000380006009
(1727704205.742176) can0 00000259#FFFE6B95FFFFFEB0
(1727704205.742320) can0 00000279#FFFFFFFF80006009
(1727704205.743668) can0 00000257#0000E3A0FFFFFFD0
(1727704205.743813) can0 00000277#0000001580006001
(1727704205.745571) can0 00000258#000069ABFFFFFE3C
(1727704205.745716) can0 00000278#0000000380006009
(1727704205.747173) can0 00000259#FFFE6B95FFFFFECC
(1727704205.747317) can0 00000279#FFFFFFFF80006009
(1727704205.748667) can0 00000257#0000E3A0FFFFFFAC
(1727704205.748812) can0 00000277#0000001580006001
(1727704205.750569) can0 00000258#000069ABFFFFFEF8
(1727704205.750714) can0 00000278#0000000380006009
(1727704205.752173) can0 00000259#FFFE6B9500000004
(1727704205.752317) can0 00000279#FFFFFFFF80006009
(1727704205.753665) can0 00000257#0000E3A0FFFFFEE0
(1727704205.753810) can0 00000277#0000001580006001
(1727704205.755567) can0 00000258#000069ABFFFFFF28
(1727704205.755713) can0 00000278#0000000380006009
(1727704205.757169) can0 00000259#FFFE6B95000000C8
(1727704205.757313) can0 00000279#FFFFFFFF80006009
(1727704205.758664) can0 00000257#0000E3A000000000
(1727704205.758809) can0 00000277#0000001580006001
(1727704205.759166) can0 00000656#8013000000000000
(1727704205.760565) can0 00000258#000069ABFFFFFFBC
(1727704205.760710) can0 00000278#0000000380006009
(1727704205.762169) can0 00000259#FFFE6B95FFFFFF58
(1727704205.762313) can0 00000279#FFFFFFFF80006009
(1727704205.762674) can0 00000658#8013000000000000
(1727704205.763662) can0 00000257#0000E3A000000000
(1727704205.763807) can0 00000277#0000001580006001
(1727704205.765564) can0 00000258#000069AB000000F8
(1727704205.765709) can0 00000278#0000000380006009
(1727704205.766065) can0 00000657#8013000000000000
(1727704205.767168) can0 00000259#FFFE6B95FFFFFFE4
(1727704205.767312) can0 00000279#FFFFFFFF80006009
(1727704205.768661) can0 00000257#0000E3A0FFFFFF24
(1727704205.768806) can0 00000277#0000001680006001
(1727704205.770562) can0 00000258#000069AB00000018
(1727704205.770707) can0 00000278#0000000380006009
(1727704205.772168) can0 00000259#FFFE6B9500000000
(1727704205.772312) can0 00000279#FFFFFFFF80006009
(1727704205.773660) can0 00000257#0000E3A000000074
(1727704205.773805) can0 00000277#0000001680006001
(1727704205.775560) can0 00000258#000069AB00000008
(1727704205.775705) can0 00000278#0000000380006009
(1727704205.777167) can0 00000259#FFFE6B9500000000
(1727704205.777310) can0 00000279#FFFFFFFF80006009
(1727704205.778660) can0 00000257#0000E3A0FFFFFE10
(1727704205.778801) can0 00000277#0000001680006001
(1727704205.780560) can0 00000258#000069ABFFFFFF0C
(1727704205.780705) can0 00000278#0000000380006009
(1727704205.782165) can0 00000259#FFFE6B9500000000
(1727704205.782309) can0 00000279#FFFFFFFF80006009
(1727704205.783655) can0 00000257#0000E3A000000038
(1727704205.783800) can0 00000277#0000001580006001
(1727704205.785561) can0 00000258#000069ABFFFFFFF8
(1727704205.785705) can0 00000278#0000000380006009
(1727704205.787163) can0 00000259#FFFE6B9500000000
(1727704205.787307) can0 00000279#FFFFFFFF80006009
(1727704205.788653) can0 00000257#0000E3A00000010C
(1727704205.788798) can0 00000277#0000001680006001
(1727704205.790561) can0 00000258#000069AB00000000
(1727704205.790702) can0 00000278#0000000380006009
(1727704205.792161) can0 00000259#FFFE6B95FFFFFFC8
(1727704205.792304) can0 00000279#FFFFFFFF80006009
(1727704205.793651) can0 00000257#0000E3A0FFFFFFEC
(1727704205.793796) can0 00000277#0000001680006001
(1727704205.795555) can0 00000258#000069AB00000060
(1727704205.795700) can0 00000278#0000000380006009
(1727704205.797161) can0 00000259#FFFE6B9500000004
(1727704205.797303) can0 00000279#FFFFFFFF80006009
(1727704205.798651) can0 00000257#0000E3A0FFFFFFF8
(1727704205.798796) can0 00000277#0000001680006001
(1727704205.800554) can0 00000258#000069ABFFFFFF88
(1727704205.800699) can0 00000278#0000000380006009
(1727704205.802162) can0 00000259#FFFE6B9500000000
(1727704205.802303) can0 00000279#FFFFFFFF80006009
(1727704205.803650) can0 00000257#0000E3A000000004
(1727704205.803795) can0 00000277#0000001680006001
(1727704205.805552) can0 00000258#000069AB00000000
(1727704205.805697) can0 00000278#0000000380006009
(1727704205.807155) can0 00000259#FFFE6B94FFFFFFA8
(1727704205.807299) can0 00000279#FFFFFFFF80006009
(1727704205.808647) can0 00000257#0000E3A0FFFFFF78
(1727704205.808792) can0 00000277#0000001680006001
(1727704205.809150) can0 00000656#8013000000000000
(1727704205.810550) can0 00000258#000069AB000001C0
(1727704205.810695) can0 00000278#0000000380006009
(1727704205.812155) can0 00000259#FFFE6B9400000000
(1727704205.812299) can0 00000279#FFFFFFFF80006009
(1727704205.812662) can0 00000658#8013000000000000
(1727704205.813645) can0 00000257#0000E3A0FFFFFF8C
(1727704205.813790) can0 00000277#0000001680006001
(1727704205.815548) can0 00000258#000069ABFFFFFF9C
(1727704205.815693) can0 00000278#0000000380006009
(1727704205.816049) can0 00000657#8013000000000000
(1727704205.817154) can0 00000259#FFFE6B9400000000
(1727704205.817298) can0 00000279#FFFFFFFF80006009
(1727704205.818644) can0 00000257#0000E3A000000000
(1727704205.818789) can0 00000277#0000001680006001
(1727704205.820547) can0 00000258#000069ABFFFFFF98
(1727704205.820692) can0 00000278#0000000380006009
(1727704205.822153) can0 00000259#FFFE6B9400000000
(1727704205.822297) can0 00000279#FFFFFFFF80006009
(1727704205.823645) can0 00000257#0000E3A0FFFFFF98
(1727704205.823790) can0 00000277#0000001580006001
(1727704205.825546) can0 00000258#000069AB00000000
(1727704205.825691) can0 00000278#0000000380006009
(1727704205.827151) can0 00000259#FFFE6B9400000008
(1727704205.827295) can0 00000279#FFFFFFFF80006009
(1727704205.828640) can0 00000257#0000E3A0000001C8
(1727704205.828785) can0 00000277#0000001680006001
(1727704205.830544) can0 00000258#000069AB00000000
(1727704205.830689) can0 00000278#0000000380006009
(1727704205.832149) can0 00000259#FFFE6B940000000C
(1727704205.832293) can0 00000279#FFFFFFFF80006009
(1727704205.833640) can0 00000257#0000E3A0FFFFFFA8
(1727704205.833785) can0 00000277#0000001680006001
(1727704205.835542) can0 00000258#000069AB00000000
(1727704205.835687) can0 00000278#0000000380006009
(1727704205.837147) can0 00000259#FFFE6B9400000004
(1727704205.837291) can0 00000279#FFFFFFFF80006009
(1727704205.838639) can0 00000257#0000E3A0FFFFFF80
(1727704205.838784) can0 00000277#0000001680006001
(1727704205.840540) can0 00000258#000069AB00000044
(1727704205.840686) can0 00000278#0000000380006009
(1727704205.842146) can0 00000259#FFFE6B9400000000
(1727704205.842290) can0 00000279#FFFFFFFF80006009
(1727704205.843637) can0 00000257#0000E3A000000000
(1727704205.843782) can0 00000277#0000001680006001
(1727704205.845539) can0 00000258#000069AB00000004
(1727704205.845684) can0 00000278#0000000380006009
(1727704205.847144) can0 00000259#FFFE6B9400000000
(1727704205.847288) can0 00000279#FFFFFFFF80006009
(1727704205.848635) can0 00000257#0000E3A0FFFFFFA8
(1727704205.848780) can0 00000277#0000001680006001
(1727704205.850538) can0 00000258#000069AB00000000
(1727704205.850683) can0 00000278#0000000380006009
(1727704205.851258) can0 101#0001
(1727704205.852143) can0 00000259#FFFE6B9400000000
(1727704205.852287) can0 00000279#FFFFFFFF80006009
(1727704205.853633) can0 00000257#0000E3A0FFFFFF88
(1727704205.853778) can0 00000277#0000001680006001
(1727704205.855536) can0 00000258#000069AB00000000
(1727704205.855681) can0 00000278#0000000380006009
(1727704205.857141) can0 00000259#FFFE6B9400000000
(1727704205.857285) can0 00000279#FFFFFFFF80006009
(1727704205.858631) can0 00000257#0000E3A0FFFFFF94
(1727704205.858776) can0 00000277#0000001680006001
(1727704205.858922) can0 000014D1#
(1727704205.859634) can0 00000656#8013000000000000
(1727704205.860535) can0 00000258#000069AB00000000
(1727704205.860680) can0 00000278#0000000380006009
(1727704205.862139) can0 00000259#FFFE6B9400000000
(1727704205.862283) can0 00000279#FFFFFFFF80006009
(1727704205.862430) can0 000014D3#
(1727704205.863142) can0 00000658#8013000000000000
(1727704205.863629) can0 00000257#0000E3A0000001E4
(1727704205.863774) can0 00000277#0000001680006001
(1727704205.865533) can0 00000258#000069AB00000000
(1727704205.865678) can0 00000278#0000000380006009
(1727704205.865822) can0 000014D2#
(1727704205.866533) can0 00000657#8013000000000000
(1727704205.867138) can0 00000259#FFFE6B9400000000
(1727704205.867282) can0 00000279#FFFFFFFF80006009
(1727704205.868628) can0 00000257#0000E3A000000150
(1727704205.868773) can0 00000277#0000001680006001
(1727704205.870531) can0 00000258#000069AB00000000
(1727704205.870676) can0 00000278#0000000380006009
(1727704205.872137) can0 00000259#FFFE6B9400000000
(1727704205.872281) can0 00000279#FFFFFFFF80006009
(1727704205.873628) can0 00000257#0000E3A0FFFFFFD8
(1727704205.873773) can0 00000277#0000001680006001
(1727704205.875530) can0 00000258#000069AB00000000
(1727704205.875676) can0 00000278#0000000380006009
(1727704205.877135) can0 00000259#FFFE6B9400000008
(1727704205.877279) can0 00000279#FFFFFFFF80006009
(1727704205.878626) can0 00000257#0000E3A000000000
(1727704205.878771) can0 00000277#0000001680006001
(1727704205.880529) can0 00000258#000069AB00000000
(1727704205.880674) can0 00000278#0000000380006009
(1727704205.882131) can0 00000259#FFFE6B94FFFFFF8C
(1727704205.882275) can0 00000279#FFFFFFFF80006009
(1727704205.883623) can0 00000257#0000E3A0FFFFFF88
(1727704205.883768) can0 00000277#0000001680006001
(1727704205.885527) can0 00000258#000069AB00000000
(1727704205.885672) can0 00000278#0000000380006009
(1727704205.887132) can0 00000259#FFFE6B9400000000
(1727704205.887276) can0 00000279#FFFFFFFF80006009
(1727704205.888622) can0 00000257#0000E3A0FFFFFF0C
(1727704205.888767) can0 00000277#0000001680006001
(1727704205.890524) can0 00000258#000069AB000000A8
(1727704205.890669) can0 00000278#0000000380006009
(1727704205.892130) can0 00000259#FFFE6B9400000008
(1727704205.892274) can0 00000279#FFFFFFFF80006009
(1727704205.893619) can0 00000257#0000E3A0FFFFFF44
(1727704205.893767) can0 00000277#0000001680006001
