(1727704270.912729) can0 00000257#0000C28BFFFFFF88
(1727704270.912873) can0 00000277#FFFFFFF580006001
(1727704270.913234) can0 00000656#8013000000000000
(1727704270.913665) can0 00001040#
(1727704270.915218) can0 00000258#0000345BFFFFFFFC
(1727704270.915363) can0 00000278#0000000080006001
(1727704270.916603) can0 00000259#FFFFA194000000A0
(1727704270.916749) can0 00000279#0000000080006001
(1727704270.917107) can0 00000658#8013000000000000
(1727704270.917728) can0 00000257#0000C28BFFFFFF94
(1727704270.917872) can0 00000277#FFFFFFF580006001
(1727704270.920213) can0 00000258#0000345B00000000
(1727704270.920361) can0 00000278#0000000080006001
(1727704270.920713) can0 00000657#8013000000000000
(1727704270.921602) can0 00000259#FFFFA19400000000
(1727704270.921748) can0 00000279#0000000080006001
(1727704270.922728) can0 00000257#0000C28B00000000
(1727704270.922872) can0 00000277#FFFFFFF580006001
(1727704270.925211) can0 00000258#0000345BFFFFFF58
(1727704270.925359) can0 00000278#0000000080006001
(1727704270.926600) can0 00000259#FFFFA19400000000
(1727704270.926746) can0 00000279#0000000080006001
(1727704270.927727) can0 00000257#0000C28B00000000
(1727704270.927871) can0 00000277#FFFFFFF580006001
(1727704270.930210) can0 00000258#0000345B00000024
(1727704270.930356) can0 00000278#FFFFFFFF80006001
(1727704270.931596) can0 00000259#FFFFA1940000010C
(1727704270.931742) can0 00000279#0000000080006001
(1727704270.932725) can0 00000257#0000C28B00000000
(1727704270.932869) can0 00000277#FFFFFFF580006001
(1727704270.935207) can0 00000258#0000345B000000C4
(1727704270.935353) can0 00000278#FFFFFFFF80006001
(1727704270.936597) can0 00000259#FFFFA194FFFFFF8C
(1727704270.936742) can0 00000279#FFFFFFFF80006001
(1727704270.937722) can0 00000257#0000C28B00000044
(1727704270.937866) can0 00000277#FFFFFFF580006001
(1727704270.940205) can0 00000258#0000345B000000C8
(1727704270.940351) can0 00000278#FFFFFFFF80006001
(1727704270.941595) can0 00000259#FFFFA19400000060
(1727704270.941741) can0 00000279#0000000080006001
(1727704270.942722) can0 00000257#0000C28B00000000
(1727704270.942866) can0 00000277#FFFFFFF580006001
(1727704270.945204) can0 00000258#0000345BFFFFFFCC
(1727704270.945350) can0 00000278#FFFFFFFF80006001
(1727704270.946594) can0 00000259#FFFFA19400000000
(1727704270.946740) can0 00000279#0000000080006001
(1727704270.947721) can0 00000257#0000C28B00000000
(1727704270.947865) can0 00000277#FFFFFFF580006001
(1727704270.950203) can0 00000258#0000345BFFFFFFA4
(1727704270.950349) can0 00000278#FFFFFFFF80006001
(1727704270.951591) can0 00000259#FFFFA194FFFFFE40
(1727704270.951736) can0 00000279#FFFFFFFF80006001
(1727704270.952719) can0 00000257#0000C28B00000000
(1727704270.952863) can0 00000277#FFFFFFF580006001
(1727704270.955201) can0 00000258#0000345BFFFFFF44
(1727704270.955347) can0 00000278#FFFFFFFF80006001
(1727704270.956589) can0 00000259#FFFFA1940000003C
(1727704270.956734) can0 00000279#FFFFFFFF80006001
(1727704270.957717) can0 00000257#0000C28B00000000
(1727704270.957861) can0 00000277#FFFFFFF580006001
(1727704270.960199) can0 00000258#0000345B000000F4
(1727704270.960345) can0 00000278#FFFFFFFF80006001
(1727704270.961589) can0 00000259#FFFFA19400000000
(1727704270.961734) can0 00000279#FFFFFFFF80006001
(1727704270.962714) can0 00000257#0000C28B00000008
(1727704270.962858) can0 00000277#FFFFFFF580006001
(1727704270.963221) can0 00000656#8013000000000000
(1727704270.965199) can0 00000258#0000345BFFFFFF8C
(1727704270.965345) can0 00000278#FFFFFFFF80006001
(1727704270.966586) can0 00000259#FFFFA1940000004C
(1727704270.966732) can0 00000279#0000000080006001
(1727704270.967091) can0 00000658#8013000000000000
(1727704270.967714) can0 00000257#0000C28B00000000
(1727704270.967858) can0 00000277#FFFFFFF580006001
(1727704270.970198) can0 00000258#0000345B0000000C
(1727704270.970344) can0 00000278#FFFFFFFF80006001
(1727704270.970698) can0 00000657#8013000000000000
(1727704270.971586) can0 00000259#FFFFA19400000000
(1727704270.971731) can0 00000279#FFFFFFFF80006001
(1727704270.972713) can0 00000257#0000C28B00000000
(1727704270.972857) can0 00000277#FFFFFFF580006001
(1727704270.975196) can0 00000258#0000345B00000000
(1727704270.975342) can0 00000278#FFFFFFFF80006001
(1727704270.976585) can0 00000259#FFFFA194000000B8
(1727704270.976730) can0 00000279#FFFFFFFF80006001
(1727704270.977711) can0 00000257#0000C28B00000000
(1727704270.977855) can0 00000277#FFFFFFF580006001
(1727704270.980194) can0 00000258#0000345B00000030
(1727704270.980341) can0 00000278#FFFFFFFF80006001
(1727704270.981582) can0 00000259#FFFFA194FFFFFF60
(1727704270.981727) can0 00000279#FFFFFFFF80006001
(1727704270.982709) can0 00000257#0000C28B00000000
(1727704270.982853) can0 00000277#FFFFFFF580006001
(1727704270.985193) can0 00000258#0000345B00000000
(1727704270.985339) can0 00000278#FFFFFFFF80006001
(1727704270.986583) can0 00000259#FFFFA19400000068
(1727704270.986726) can0 00000279#FFFFFFFF80006001
(1727704270.987707) can0 00000257#0000C28B00000000
(1727704270.987852) can0 00000277#FFFFFFF580006001
(1727704270.990192) can0 00000258#0000345B0000005C
(1727704270.990338) can0 00000278#FFFFFFFF80006001
(1727704270.991583) can0 00000259#FFFFA19400000008
(1727704270.991725) can0 00000279#FFFFFFFF80006001
(1727704270.992706) can0 00000257#0000C28B00000000
(1727704270.992850) can0 00000277#FFFFFFF480006001
(1727704270.995188) can0 00000258#0000345B000001CC
(1727704270.995334) can0 00000278#FFFFFFFF80006001
(1727704270.996579) can0 00000259#FFFFA19400000000
(1727704270.996724) can0 00000279#FFFFFFFF80006001
(1727704270.997705) can0 00000257#0000C28B00000000
(1727704270.997849) can0 00000277#FFFFFFF480006001
(1727704271.000190) can0 00000258#0000345BFFFFFFF0
(1727704271.000336) can0 00000278#FFFFFFFF80006001
(1727704271.001576) can0 00000259#FFFFA19400000030
(1727704271.001721) can0 00000279#FFFFFFFF80006001
(1727704271.002703) can0 00000257#0000C28B00000000
(1727704271.002847) can0 00000277#FFFFFFF580006001
(1727704271.005188) can0 00000258#0000345B00000010
(1727704271.005334) can0 00000278#FFFFFFFF80006001
(1727704271.006573) can0 00000259#FFFFA194FFFFFF64
(1727704271.006718) can0 00000279#FFFFFFFF80006001
(1727704271.007701) can0 00000257#0000C28B00000000
(1727704271.007845) can0 00000277#FFFFFFF580006001
(1727704271.010185) can0 00000258#0000345BFFFFFF94
(1727704271.010331) can0 00000278#FFFFFFFF80006001
(1727704271.011571) can0 00000259#FFFFA194FFFFFFF0
(1727704271.011716) can0 00000279#FFFFFFFF80006001
(1727704271.012699) can0 00000257#0000C28B00000000
(1727704271.012843) can0 00000277#FFFFFFF580006001
(1727704271.013201) can0 00000656#8013000000000000
(1727704271.015184) can0 00000258#0000345BFFFFFF7C
(1727704271.015330) can0 00000278#FFFFFFFF80006001
(1727704271.016572) can0 00000259#FFFFA19400000000
(1727704271.016718) can0 00000279#FFFFFFFF80006001
(1727704271.017075) can0 00000658#8013000000000000
(1727704271.017698) can0 00000257#0000C28B00000000
(1727704271.017842) can0 00000277#FFFFFFF580006001
(1727704271.020185) can0 00000258#0000345B00000008
(1727704271.020327) can0 00000278#FFFFFFFF80006001
(1727704271.020685) can0 00000657#8013000000000000
(1727704271.021571) can0 00000259#FFFFA19400000000
(1727704271.021716) can0 00000279#FFFFFFFF80006001
(1727704271.022697) can0 00000257#0000C28B00000000
(1727704271.022841) can0 00000277#FFFFFFF580006001
(1727704271.025179) can0 00000258#0000345BFFFFFDE4
(1727704271.025325) can0 00000278#FFFFFFFF80006001
(1727704271.026569) can0 00000259#FFFFA19400000000
(1727704271.026715) can0 00000279#0000000080006001
(1727704271.027695) can0 00000257#0000C28B00000000
(1727704271.027839) can0 00000277#FFFFFFF580006001
(1727704271.030179) can0 00000258#0000345BFFFFFF68
(1727704271.030325) can0 00000278#FFFFFFFF80006001
(1727704271.031567) can0 00000259#FFFFA19400000000
(1727704271.031713) can0 00000279#0000000080006001
(1727704271.032693) can0 00000257#0000C28B00000000
(1727704271.032837) can0 00000277#FFFFFFF480006001
(1727704271.035178) can0 00000258#0000345BFFFFFEB4
(1727704271.035324) can0 00000278#FFFFFFFF80006001
(1727704271.036563) can0 00000259#FFFFA194FFFFFF2C
(1727704271.036708) can0 00000279#FFFFFFFF80006001
(1727704271.037691) can0 00000257#0000C28B00000000
(1727704271.037835) can0 00000277#FFFFFFF480006001
(1727704271.040178) can0 00000258#0000345BFFFFFFF8
(1727704271.040324) can0 00000278#FFFFFFFF80006001
(1727704271.041562) can0 00000259#FFFFA194FFFFFF68
(1727704271.041708) can0 00000279#0000000080006001
(1727704271.042690) can0 00000257#0000C28B00000000
(1727704271.042834) can0 00000277#FFFFFFF480006001
(1727704271.045174) can0 00000258#0000345B00000040
(1727704271.045320) can0 00000278#FFFFFFFF80006001
(1727704271.046561) can0 00000259#FFFFA19400000014
(1727704271.046707) can0 00000279#0000000080006001
(1727704271.047689) can0 00000257#0000C28BFFFFFFA0
(1727704271.047833) can0 00000277#FFFFFFF580006001
(1727704271.050171) can0 00000258#0000345B0000016C
(1727704271.050317) can0 00000278#FFFFFFFF80006001
(1727704271.051316) can0 101#0001
(1727704271.051558) can0 00000259#FFFFA194FFFFFF58
(1727704271.051704) can0 00000279#0000000080006001
(1727704271.052686) can0 00000257#0000C28C000001B4
(1727704271.052830) can0 00000277#FFFFFFF480006001
(1727704271.055172) can0 00000258#0000345B00000000
(1727704271.055318) can0 00000278#FFFFFFFF80006001
(1727704271.056558) can0 00000259#FFFFA194FFFFFEFC
(1727704271.056703) can0 00000279#FFFFFFFF80006001
(1727704271.057687) can0 00000257#0000C28B00000004
(1727704271.057827) can0 00000277#FFFFFFF480006001
(1727704271.060169) can0 00000258#0000345BFFFFFF9C
(1727704271.060317) can0 00000278#0000000080006001
(1727704271.061558) can0 00000259#FFFFA19400000000
(1727704271.061704) can0 00000279#0000000080006001
(1727704271.062687) can0 00000257#0000C28B00000000
(1727704271.062828) can0 00000277#FFFFFFF580006001
(1727704271.063187) can0 00000656#8013000000000000
(1727704271.065170) can0 00000258#0000345BFFFFFFF8
(1727704271.065318) can0 00000278#0000000080006001
(1727704271.066554) can0 00000259#FFFFA1940000006C
(1727704271.066700) can0 00000279#0000000080006001
(1727704271.067059) can0 00000658#8013000000000000
(1727704271.067682) can0 00000257#0000C28B00000000
(1727704271.067826) can0 00000277#FFFFFFF580006001
(1727704271.070167) can0 00000258#0000345BFFFFFFBC
(1727704271.070314) can0 00000278#0000000080006001
(1727704271.070667) can0 00000657#8013000000000000
(1727704271.071556) can0 00000259#FFFFA19400000040
(1727704271.071702) can0 00000279#0000000080006001
(1727704271.072680) can0 00000257#0000C28B00000000
(1727704271.072824) can0 00000277#FFFFFFF480006001
(1727704271.075164) can0 00000258#0000345B0000002C
(1727704271.075312) can0 00000278#0000000080006001
(1727704271.076552) can0 00000259#FFFFA19400000180
(1727704271.076697) can0 00000279#FFFFFFFF80006001
(1727704271.077678) can0 00000257#0000C28B00000000
(1727704271.077822) can0 00000277#FFFFFFF480006001
(1727704271.080164) can0 00000258#0000345B00000078
(1727704271.080312) can0 00000278#0000000080006001
(1727704271.081552) can0 00000259#FFFFA19400000008
(1727704271.081698) can0 00000279#0000000080006001
(1727704271.082677) can0 00000257#0000C28B00000000
(1727704271.082821) can0 00000277#FFFFFFF580006001
(1727704271.085161) can0 00000258#0000345BFFFFFFCC
(1727704271.085309) can0 00000278#0000000080006001
(1727704271.086550) can0 00000259#FFFFA19400000000
(1727704271.086696) can0 00000279#0000000080006001
(1727704271.087676) can0 00000257#0000C28B00000000
(1727704271.087820) can0 00000277#FFFFFFF580006001
(1727704271.090158) can0 00000258#0000345B0000008C
(1727704271.090306) can0 00000278#0000000080006001
(1727704271.091549) can0 00000259#FFFFA19400000000
(1727704271.091695) can0 00000279#0000000080006001
(1727704271.092672) can0 00000257#0000C28B00000004
(1727704271.092816) can0 00000277#FFFFFFF480006001
(1727704271.095157) can0 00000258#0000345BFFFFFF90
(1727704271.095305) can0 00000278#0000000080006001
(1727704271.096545) can0 00000259#FFFFA194FFFFFFF8
(1727704271.096691) can0 00000279#0000000080006001
(1727704271.097672) can0 00000257#0000C28B00000000
(1727704271.097816) can0 00000277#FFFFFFF580006001
(1727704271.100157) can0 00000258#0000345BFFFFFF60
(1727704271.100305) can0 00000278#0000000080006001
(1727704271.101543) can0 00000259#FFFFA194FFFFFF9C
(1727704271.101689) can0 00000279#0000000080006001
(1727704271.102671) can0 00000257#0000C28B00000000
(1727704271.102815) can0 00000277#FFFFFFF580006001
(1727704271.105153) can0 00000258#0000345B00000098
(1727704271.105302) can0 00000278#0000000080006001
(1727704271.106541) can0 00000259#FFFFA194000000F4
(1727704271.106689) can0 00000279#0000000080006001
(1727704271.107669) can0 00000257#0000C28B00000000
(1727704271.107813) can0 00000277#FFFFFFF580006001
(1727704271.110153) can0 00000258#0000345BFFFFFF84
(1727704271.110302) can0 00000278#0000000080006001
(1727704271.111541) can0 00000259#FFFFA194FFFFFFFC
(1727704271.111690) can0 00000279#0000000080006001
(1727704271.112039) can0 00001040#
(1727704271.112667) can0 00000257#0000C28B00000000
(1727704271.112812) can0 00000277#FFFFFFF580006001
(1727704271.113170) can0 00000656#8013000000000000
(1727704271.115151) can0 00000258#0000345B00000004
(1727704271.115297) can0 00000278#FFFFFFFF80006001
(1727704271.116540) can0 00000259#FFFFA19400000058
(1727704271.116685) can0 00000279#FFFFFFFF80006001
(1727704271.117043) can0 00000658#8013000000000000
(1727704271.117664) can0 00000257#0000C28B00000010
(1727704271.117808) can0 00000277#FFFFFFF580006001
(1727704271.120151) can0 00000258#0000345B00000000
(1727704271.120297) can0 00000278#FFFFFFFF80006001
(1727704271.120650) can0 00000657#8013000000000000
(1727704271.121537) can0 00000259#FFFFA194FFFFFEA4
(1727704271.121683) can0 00000279#0000000080006001
(1727704271.122664) can0 00000257#0000C28B00000000
(1727704271.122808) can0 00000277#FFFFFFF580006001
(1727704271.125150) can0 00000258#0000345BFFFFFE80
(1727704271.125296) can0 00000278#FFFFFFFF80006001
(1727704271.126535) can0 00000259#FFFFA194FFFFFFB8
(1727704271.126681) can0 00000279#0000000080006001
(1727704271.127662) can0 00000257#0000C28B00000000
(1727704271.127806) can0 00000277#FFFFFFF580006001
(1727704271.130148) can0 00000258#0000345B00000000
(1727704271.130294) can0 00000278#FFFFFFFF80006001
(1727704271.131534) can0 00000259#FFFFA194000000D8
(1727704271.131681) can0 00000279#0000000080006001
(1727704271.132661) can0 00000257#0000C28B00000000
(1727704271.132805) can0 00000277#FFFFFFF580006001
(1727704271.135144) can0 00000258#0000345B00000110
(1727704271.135291) can0 00000278#FFFFFFFF80006001
(1727704271.136534) can0 00000259#FFFFA19400000178
(1727704271.136679) can0 00000279#FFFFFFFF80006001
(1727704271.137659) can0 00000257#0000C28B00000000
(1727704271.137803) can0 00000277#FFFFFFF580006001
(1727704271.140145) can0 00000258#0000345B00000000
(1727704271.140291) can0 00000278#FFFFFFFF80006001
(1727704271.141532) can0 00000259#FFFFA194FFFFFFF4
(1727704271.141677) can0 00000279#FFFFFFFF80006001
(1727704271.142658) can0 00000257#0000C28B00000000
(1727704271.142802) can0 00000277#FFFFFFF580006001
(1727704271.145143) can0 00000258#0000345B00000000
(1727704271.145292) can0 00000278#FFFFFFFF80006001
(1727704271.146530) can0 00000259#FFFFA194FFFFFFFC
(1727704271.146676) can0 00000279#0000000080006001
(1727704271.147655) can0 00000257#0000C28BFFFFFE40
(1727704271.147799) can0 00000277#FFFFFFF580006001
(1727704271.150140) can0 00000258#0000345B000001D0
(1727704271.150286) can0 00000278#FFFFFFFF80006001
(1727704271.151528) can0 00000259#FFFFA194FFFFFFBC
(1727704271.151673) can0 00000279#FFFFFFFF80006001
(1727704271.152413) can0 3A1#
(1727704271.152652) can0 00000257#0000C28B00000028
(1727704271.152796) can0 00000277#FFFFFFF580006001
(1727704271.155139) can0 00000258#0000345BFFFFFF90
(1727704271.155285) can0 00000278#FFFFFFFF80006001
(1727704271.156527) can0 00000259#FFFFA194FFFFFF88
(1727704271.156672) can0 00000279#FFFFFFFF80006001
(1727704271.157651) can0 00000257#0000C28B00000010
(1727704271.157796) can0 00000277#FFFFFFF580006001
(1727704271.160139) can0 00000258#0000345BFFFFFF4C
(1727704271.160285) can0 00000278#FFFFFFFF80006001
(1727704271.161526) can0 00000259#FFFFA194FFFFFFAC
(1727704271.161671) can0 00000279#FFFFFFFF80006001
(1727704271.162652) can0 00000257#0000C28B00000000
(1727704271.162796) can0 00000277#FFFFFFF680006001
(1727704271.163154) can0 00000656#8013000000000000
(1727704271.165136) can0 00000258#0000345BFFFFFF3C
(1727704271.165282) can0 00000278#FFFFFFFF80006001
(1727704271.166525) can0 00000259#FFFFA19400000000
(1727704271.166671) can0 00000279#0000000080006001
(1727704271.167028) can0 00000658#8013000000000000
(1727704271.167650) can0 00000257#0000C28B00000000
(1727704271.167794) can0 00000277#FFFFFFF680006001
(1727704271.170135) can0 00000258#0000345B00000000
(1727704271.170281) can0 00000278#FFFFFFFF80006001
(1727704271.170635) can0 00000657#8013000000000000
(1727704271.171523) can0 00000259#FFFFA19400000000
(1727704271.171668) can0 00000279#FFFFFFFF80006001
(1727704271.172648) can0 00000257#0000C28B00000000
(1727704271.172793) can0 00000277#FFFFFFF680006001
(1727704271.175134) can0 00000258#0000345B00000000
(1727704271.175280) can0 00000278#FFFFFFFF80006001
(1727704271.176521) can0 00000259#FFFFA19400000000
(1727704271.176667) can0 00000279#FFFFFFFF80006001
(1727704271.177646) can0 00000257#0000C28B00000000
(1727704271.177793) can0 00000277#FFFFFFF580006001
(1727704271.180132) can0 00000258#0000345BFFFFFF88
(1727704271.180278) can0 00000278#FFFFFFFF80006001
(1727704271.181520) can0 00000259#FFFFA19400000000
(1727704271.181665) can0 00000279#FFFFFFFF80006001
(1727704271.182643) can0 00000257#0000C28B00000004
(1727704271.182787) can0 00000277#FFFFFFF580006001
(1727704271.185131) can0 00000258#0000345B00000000
(1727704271.185277) can0 00000278#FFFFFFFF80006001
(1727704271.186517) can0 00000259#FFFFA194FFFFFFF8
(1727704271.186662) can0 00000279#FFFFFFFF80006001
(1727704271.187643) can0 00000257#0000C28B00000000
(1727704271.187788) can0 00000277#FFFFFFF680006001
(1727704271.190129) can0 00000258#0000345B00000294
(1727704271.190275) can0 00000278#FFFFFFFF80006001
(1727704271.191516) can0 00000259#FFFFA194000001C0
(1727704271.191661) can0 00000279#FFFFFFFF80006001
(1727704271.192642) can0 00000257#0000C28B00000000
(1727704271.192786) can0 00000277#FFFFFFF580006001
(1727704271.195126) can0 00000258#0000345B00000004
(1727704271.195272) can0 00000278#FFFFFFFF80006001
(1727704271.196513) can0 00000259#FFFFA1940000024C
(1727704271.196658) can0 00000279#FFFFFFFF80006001
(1727704271.197639) can0 00000257#0000C28B00000064
(1727704271.197783) can0 00000277#FFFFFFF580006001
(1727704271.200126) can0 00000258#0000345B00000000
(1727704271.200272) can0 00000278#FFFFFFFF80006001
(1727704271.201513) can0 00000259#FFFFA194FFFFFFB0
(1727704271.201658) can0 00000279#FFFFFFFF80006001
(1727704271.202638) can0 00000257#0000C28BFFFFFFFC
(1727704271.202782) can0 00000277#FFFFFFF580006001
(1727704271.205124) can0 00000258#0000345B00000000
(1727704271.205270) can0 00000278#FFFFFFFF80006001
(1727704271.206512) can0 00000259#FFFFA19400000000
(1727704271.206657) can0 00000279#FFFFFFFF80006001
(1727704271.207637) can0 00000257#0000C28B00000000
(1727704271.207781) can0 00000277#FFFFFFF680006001
(1727704271.210122) can0 00000258#0000345BFFFFFFC0
(1727704271.210268) can0 00000278#FFFFFFFF80006001
(1727704271.211510) can0 00000259#FFFFA19400000000
(1727704271.211655) can0 00000279#FFFFFFFF80006001
(1727704271.212635) can0 00000257#0000C28B00000000
(1727704271.212779) can0 00000277#FFFFFFF680006001
(1727704271.213137) can0 00000656#8013000000000000
(1727704271.215122) can0 00000258#0000345B00000000
(1727704271.215268) can0 00000278#FFFFFFFF80006001
(1727704271.216506) can0 00000259#FFFFA194FFFFFF10
(1727704271.216651) can0 00000279#FFFFFFFF80006001
(1727704271.217012) can0 00000658#8013000000000000
(1727704271.217634) can0 00000257#0000C28B00000000
(1727704271.217778) can0 00000277#FFFFFFF580006001
(1727704271.220121) can0 00000258#0000345BFFFFFFD0
(1727704271.220267) can0 00000278#FFFFFFFF80006001
(1727704271.220620) can0 00000657#8013000000000000
(1727704271.221504) can0 00000259#FFFFA194FFFFFE8C
(1727704271.221649) can0 00000279#FFFFFFFF80006001
(1727704271.222630) can0 00000257#0000C28BFFFFFFBC
(1727704271.222774) can0 00000277#FFFFFFF680006001
(1727704271.225118) can0 00000258#0000345B00000000
(1727704271.225264) can0 00000278#FFFFFFFF80006001
(1727704271.226505) can0 00000259#FFFFA19400000004
(1727704271.226650) can0 00000279#FFFFFFFF80006001
(1727704271.227631) can0 00000257#0000C28B00000000
(1727704271.227775) can0 00000277#FFFFFFF680006001
(1727704271.230116) can0 00000258#0000345B00000000
(1727704271.230262) can0 00000278#FFFFFFFF80006001
(1727704271.231501) can0 00000259#FFFFA194FFFFFEEC
(1727704271.231646) can0 00000279#FFFFFFFF80006001
(1727704271.232629) can0 00000257#0000C28B00000000
(1727704271.232773) can0 00000277#FFFFFFF580006001
(1727704271.235115) can0 00000258#0000345B00000000
(1727704271.235262) can0 00000278#FFFFFFFF80006001
(1727704271.236503) can0 00000259#FFFFA1940000000C
(1727704271.236648) can0 00000279#FFFFFFFF80006001
(1727704271.237627) can0 00000257#0000C28B00000000
(1727704271.237771) can0 00000277#FFFFFFF580006001
(1727704271.240114) can0 00000258#0000345B00000000
(1727704271.240260) can0 00000278#FFFFFFFF80006001
(1727704271.241500) can0 00000259#FFFFA194000001D8
(1727704271.241645) can0 00000279#FFFFFFFF80006001
(1727704271.242625) can0 00000257#0000C28B00000000
(1727704271.242769) can0 00000277#FFFFFFF580006001
(1727704271.245112) can0 00000258#0000345BFFFFFFC4
(1727704271.245258) can0 00000278#FFFFFFFF80006001
(1727704271.246501) can0 00000259#FFFFA1940000000C
(1727704271.246647) can0 00000279#0000000080006001
(1727704271.247624) can0 00000257#0000C28B00000000
(1727704271.247769) can0 00000277#FFFFFFF580006001
(1727704271.250108) can0 00000258#0000345B00000148
(1727704271.250254) can0 00000278#FFFFFFFF80006001
(1727704271.251498) can0 00000259#FFFFA19400000000
(1727704271.251644) can0 00000279#0000000080006001
(1727704271.252623) can0 00000257#0000C28B00000000
(1727704271.252767) can0 00000277#FFFFFFF580006001
(1727704271.255108) can0 00000258#0000345BFFFFFF84
(1727704271.255254) can0 00000278#FFFFFFFF80006001
(1727704271.256498) can0 00000259#FFFFA19400000000
(1727704271.256641) can0 00000279#FFFFFFFF80006001
(1727704271.257621) can0 00000257#0000C28B00000000
(1727704271.257765) can0 00000277#FFFFFFF580006001
(1727704271.260106) can0 00000258#0000345B000001C0
(1727704271.260252) can0 00000278#FFFFFFFF80006001
(1727704271.261493) can0 00000259#FFFFA19400000078
(1727704271.261639) can0 00000279#0000000080006001
(1727704271.262618) can0 00000257#0000C28C000001A0
(1727704271.262762) can0 00000277#FFFFFFF580006001
(1727704271.263121) can0 00000656#8013000000000000
(1727704271.265105) can0 00000258#0000345BFFFFFFFC
(1727704271.265251) can0 00000278#FFFFFFFF80006001
(1727704271.266491) can0 00000259#FFFFA1940000001C
(1727704271.266637) can0 00000279#0000000080006001
(1727704271.266998) can0 00000658#8013000000000000
(1727704271.267616) can0 00000257#0000C28BFFFFFFD4
(1727704271.267760) can0 00000277#FFFFFFF680006001
(1727704271.270103) can0 00000258#0000345B00000210
(1727704271.270249) can0 00000278#FFFFFFFF80006001
(1727704271.270604) can0 00000657#8013000000000000
(1727704271.271492) can0 00000259#FFFFA19400000000
(1727704271.271638) can0 00000279#0000000080006001
(1727704271.272614) can0 00000257#0000C28B00000004
(1727704271.272758) can0 00000277#FFFFFFF580006001
(1727704271.275102) can0 00000258#0000345B00000018
(1727704271.275248) can0 00000278#FFFFFFFF80006001
(1727704271.276490) can0 00000259#FFFFA19400000000
(1727704271.276636) can0 00000279#0000000080006001
(1727704271.277615) can0 00000257#0000C28B00000000
(1727704271.277759) can0 00000277#FFFFFFF580006001
(1727704271.280101) can0 00000258#0000345BFFFFFEB8
(1727704271.280247) can0 00000278#FFFFFFFF80006001
(1727704271.281488) can0 00000259#FFFFA194FFFFFF88
(1727704271.281634) can0 00000279#0000000080006001
(1727704271.282613) can0 00000257#0000C28B00000078
(1727704271.282757) can0 00000277#FFFFFFF680006001
(1727704271.285099) can0 00000258#0000345B00000114
(1727704271.285243) can0 00000278#FFFFFFFF80006001
(1727704271.286486) can0 00000259#FFFFA194FFFFFFB4
(1727704271.286632) can0 00000279#0000000080006001
(1727704271.287611) can0 00000257#0000C28B00000000
(1727704271.287755) can0 00000277#FFFFFFF680006001
(1727704271.290100) can0 00000258#0000345B00000050
(1727704271.290244) can0 00000278#FFFFFFFF80006001
(1727704271.291484) can0 00000259#FFFFA194FFFFFF78
(1727704271.291630) can0 00000279#0000000080006001
(1727704271.292610) can0 00000257#0000C28B00000000
(1727704271.292754) can0 00000277#FFFFFFF580006001
(1727704271.295100) can0 00000258#0000345BFFFFFEF8
(1727704271.295244) can0 00000278#FFFFFFFF80006001
(1727704271.296483) can0 00000259#FFFFA19400000000
(1727704271.296628) can0 00000279#FFFFFFFF80006001
(1727704271.297608) can0 00000257#0000C28B00000000
(1727704271.297752) can0 00000277#FFFFFFF580006001
(1727704271.300095) can0 00000258#0000345B00000080
(1727704271.300241) can0 00000278#FFFFFFFF80006001
(1727704271.301481) can0 00000259#FFFFA194FFFFFFFC
(1727704271.301627) can0 00000279#0000000080006001
(1727704271.302606) can0 00000257#0000C28B00000000
(1727704271.302750) can0 00000277#FFFFFFF580006001
(1727704271.305091) can0 00000258#0000345B000000DC
(1727704271.305237) can0 00000278#FFFFFFFF80006001
(1727704271.306480) can0 00000259#FFFFA194FFFFFFBC
(1727704271.306626) can0 00000279#0000000080006001
(1727704271.307604) can0 00000257#0000C28B00000000
(1727704271.307748) can0 00000277#FFFFFFF580006001
(1727704271.310090) can0 00000258#0000345B000000DC
(1727704271.310236) can0 00000278#FFFFFFFF80006001
(1727704271.311478) can0 00000259#FFFFA194FFFFFF5C
(1727704271.311624) can0 00000279#0000000080006001
(1727704271.311986) can0 00001040#
(1727704271.312602) can0 00000257#0000C28B00000008
(1727704271.312746) can0 00000277#FFFFFFF580006001
(1727704271.313105) can0 00000656#8013000000000000
(1727704271.315089) can0 00000258#0000345BFFFFFFD8
(1727704271.315235) can0 00000278#FFFFFFFF80006001
(1727704271.316476) can0 00000259#FFFFA19400000028
(1727704271.316621) can0 00000279#FFFFFFFF80006001
(1727704271.316980) can0 00000658#8013000000000000
(1727704271.317601) can0 00000257#0000C28B00000000
(1727704271.317745) can0 00000277#FFFFFFF580006001
(1727704271.320089) can0 00000258#0000345BFFFFFFFC
(1727704271.320235) can0 00000278#FFFFFFFF80006001
(1727704271.320589) can0 00000657#8013000000000000
(1727704271.321474) can0 00000259#FFFFA19400000078
(1727704271.321619) can0 00000279#FFFFFFFF80006001
(1727704271.322601) can0 00000257#0000C28B00000000
(1727704271.322745) can0 00000277#FFFFFFF580006001
(1727704271.325087) can0 00000258#0000345B00000000
(1727704271.325233) can0 00000278#FFFFFFFF80006001
(1727704271.326474) can0 00000259#FFFFA19400000034
(1727704271.326620) can0 00000279#0000000080006001
(1727704271.327602) can0 00000257#0000C28B00000000
(1727704271.327743) can0 00000277#FFFFFFF580006001
(1727704271.330085) can0 00000258#0000345B00000000
(1727704271.330231) can0 00000278#FFFFFFFF80006001
(1727704271.331472) can0 00000259#FFFFA194FFFFFF5C
(1727704271.331617) can0 00000279#FFFFFFFF80006001
(1727704271.332597) can0 00000257#0000C28B00000000
(1727704271.332741) can0 00000277#FFFFFFF580006001
(1727704271.335084) can0 00000258#0000345B00000000
(1727704271.335231) can0 00000278#FFFFFFFF80006001
(1727704271.336470) can0 00000259#FFFFA19400000004
(1727704271.336615) can0 00000279#FFFFFFFF80006001
(1727704271.337595) can0 00000257#0000C28B00000000
(1727704271.337739) can0 00000277#FFFFFFF580006001
(1727704271.340081) can0 00000258#0000345BFFFFFFC8
(1727704271.340228) can0 00000278#FFFFFFFF80006001
(1727704271.341469) can0 00000259#FFFFA19400000000
(1727704271.341614) can0 00000279#FFFFFFFF80006001
(1727704271.342594) can0 00000257#0000C28B00000000
(1727704271.342738) can0 00000277#FFFFFFF580006001
(1727704271.345080) can0 00000258#0000345B00000000
(1727704271.345228) can0 00000278#FFFFFFFF80006001
(1727704271.346468) can0 00000259#FFFFA19400000000
(1727704271.346614) can0 00000279#0000000080006001
(1727704271.347591) can0 00000257#0000C28BFFFFFFF8
(1727704271.347735) can0 00000277#FFFFFFF580006001
(1727704271.350080) can0 00000258#0000345BFFFFFFFC
(1727704271.350228) can0 00000278#FFFFFFFF80006001
(1727704271.351465) can0 00000259#FFFFA19400000004
(1727704271.351610) can0 00000279#FFFFFFFF80006001
(1727704271.352590) can0 00000257#0000C28B00000000
(1727704271.352734) can0 00000277#FFFFFFF580006001
(1727704271.355078) can0 00000258#0000345BFFFFFF88
(1727704271.355228) can0 00000278#FFFFFFFF80006001
(1727704271.356465) can0 00000259#FFFFA19400000000
(1727704271.356610) can0 00000279#FFFFFFFF80006001
(1727704271.357586) can0 00000257#0000C28BFFFFFFBC
(1727704271.357731) can0 00000277#FFFFFFF480006001
(1727704271.360076) can0 00000258#0000345BFFFFFF94
(1727704271.360222) can0 00000278#FFFFFFFF80006001
(1727704271.361462) can0 00000259#FFFFA1940000003C
(1727704271.361607) can0 00000279#FFFFFFFF80006001
(1727704271.362588) can0 00000257#0000C28B00000000
(1727704271.362732) can0 00000277#FFFFFFF580006001
(1727704271.363090) can0 00000656#8013000000000000
(1727704271.365074) can0 00000258#0000345BFFFFFFB8
(1727704271.365220) can0 00000278#FFFFFFFF80006001
(1727704271.366460) can0 00000259#FFFFA194FFFFFFC4
(1727704271.366605) can0 00000279#FFFFFFFF80006001
(1727704271.366965) can0 00000658#8013000000000000
(1727704271.367586) can0 00000257#0000C28B00000000
(1727704271.367730) can0 00000277#FFFFFFF580006001
(1727704271.370072) can0 00000258#0000345B00000008
(1727704271.370218) can0 00000278#FFFFFFFF80006001
(1727704271.370572) can0 00000657#8013000000000000
(1727704271.371458) can0 00000259#FFFFA194FFFFFEF8
(1727704271.371604) can0 00000279#FFFFFFFF80006001
(1727704271.372584) can0 00000257#0000C28B00000000
(1727704271.372728) can0 00000277#FFFFFFF580006001
(1727704271.375072) can0 00000258#0000345B00000000
(1727704271.375218) can0 00000278#FFFFFFFF80006001
(1727704271.376458) can0 00000259#FFFFA19400000000
(1727704271.376604) can0 00000279#FFFFFFFF80006001
(1727704271.377582) can0 00000257#0000C28B00000000
(1727704271.377726) can0 00000277#FFFFFFF580006001
(1727704271.380070) can0 00000258#0000345B00000078
(1727704271.380218) can0 00000278#FFFFFFFF80006001
(1727704271.381457) can0 00000259#FFFFA19400000000
(1727704271.381605) can0 00000279#FFFFFFFF80006001
(1727704271.382580) can0 00000257#0000C28B00000000
(1727704271.382725) can0 00000277#FFFFFFF580006001
(1727704271.385068) can0 00000258#0000345B00000068
(1727704271.385218) can0 00000278#FFFFFFFF80006001
(1727704271.386454) can0 00000259#FFFFA19400000054
(1727704271.386599) can0 00000279#FFFFFFFF80006001
(1727704271.387580) can0 00000257#0000C28B00000000
(1727704271.387724) can0 00000277#FFFFFFF580006001
(1727704271.390066) can0 00000258#0000345BFFFFFEF4
(1727704271.390212) can0 00000278#FFFFFFFF80006001
(1727704271.391451) can0 00000259#FFFFA194FFFFFEB4
(1727704271.391596) can0 00000279#FFFFFFFF80006001
(1727704271.392578) can0 00000257#0000C28B00000000
(1727704271.392722) can0 00000277#FFFFFFF580006001
(1727704271.395065) can0 00000258#0000345BFFFFFF8C
(1727704271.395211) can0 00000278#FFFFFFFF80006001
(1727704271.396449) can0 00000259#FFFFA194FFFFFF28
(1727704271.396594) can0 00000279#FFFFFFFF80006001
(1727704271.397576) can0 00000257#0000C28B00000000
(1727704271.397720) can0 00000277#FFFFFFF580006001
(1727704271.400063) can0 00000258#0000345B00000118
(1727704271.400209) can0 00000278#FFFFFFFF80006001
(1727704271.401450) can0 00000259#FFFFA194000000FC
(1727704271.401595) can0 00000279#FFFFFFFF80006001
(1727704271.402574) can0 00000257#0000C28B00000000
(1727704271.402718) can0 00000277#FFFFFFF580006001
(1727704271.405061) can0 00000258#0000345B000001A4
(1727704271.405207) can0 00000278#FFFFFFFF80006001
(1727704271.406448) can0 00000259#FFFFA194000000C8
(1727704271.406594) can0 00000279#0000000080006001
(1727704271.407573) can0 00000257#0000C28B00000000
(1727704271.407717) can0 00000277#FFFFFFF580006001
(1727704271.410061) can0 00000258#0000345BFFFFFF28
(1727704271.410207) can0 00000278#FFFFFFFF80006001
(1727704271.411446) can0 00000259#FFFFA19400000150
(1727704271.411591) can0 00000279#FFFFFFFF80006001
(1727704271.412571) can0 00000257#0000C28B00000000
(1727704271.412715) can0 00000277#FFFFFFF580006001
(1727704271.413073) can0 00000656#8013000000000000
(1727704271.415060) can0 00000258#0000345BFFFFFFD0
(1727704271.415207) can0 00000278#FFFFFFFF80006001
(1727704271.416445) can0 00000259#FFFFA19400000028
(1727704271.416590) can0 00000279#FFFFFFFF80006001
(1727704271.416949) can0 00000658#8013000000000000
(1727704271.417570) can0 00000257#0000C28B00000000
(1727704271.417714) can0 00000277#FFFFFFF580006001
(1727704271.420057) can0 00000258#0000345BFFFFFFA0
(1727704271.420207) can0 00000278#FFFFFFFF80006001
(1727704271.420557) can0 00000657#8013000000000000
(1727704271.421441) can0 00000259#FFFFA194FFFFFF28
(1727704271.421587) can0 00000279#0000000080006001
(1727704271.422568) can0 00000257#0000C28B00000000
(1727704271.422712) can0 00000277#FFFFFFF580006001
(1727704271.425055) can0 00000258#0000345BFFFFFFD4
(1727704271.425201) can0 00000278#FFFFFFFF80006001
(1727704271.426443) can0 00000259#FFFFA19400000000
(1727704271.426589) can0 00000279#0000000080006001
(1727704271.427566) can0 00000257#0000C28B00000000
(1727704271.427710) can0 00000277#FFFFFFF580006001
(1727704271.430053) can0 00000258#0000345B00000004
(1727704271.430202) can0 00000278#0000000080006001
(1727704271.431440) can0 00000259#FFFFA194FFFFFFFC
(1727704271.431586) can0 00000279#0000000080006001
(1727704271.432563) can0 00000257#0000C28BFFFFFF9C
(1727704271.432708) can0 00000277#FFFFFFF580006001
(1727704271.435053) can0 00000258#0000345B00000000
(1727704271.435201) can0 00000278#0000000080006001
(1727704271.436439) can0 00000259#FFFFA19400000000
(1727704271.436585) can0 00000279#0000000080006001
(1727704271.437563) can0 00000257#0000C28B00000000
(1727704271.437708) can0 00000277#FFFFFFF580006001
(1727704271.440052) can0 00000258#0000345BFFFFFFD0
(1727704271.440200) can0 00000278#0000000080006001
(1727704271.441438) can0 00000259#FFFFA19400000000
(1727704271.441584) can0 00000279#0000000080006001
(1727704271.442560) can0 00000257#0000C28B00000008
(1727704271.442708) can0 00000277#FFFFFFF580006001
(1727704271.445049) can0 00000258#0000345B0000023C
(1727704271.445197) can0 00000278#0000000080006001
(1727704271.446436) can0 00000259#FFFFA194000000D8
(1727704271.446582) can0 00000279#0000000080006001
(1727704271.447560) can0 00000257#0000C28B00000000
(1727704271.447704) can0 00000277#FFFFFFF580006001
(1727704271.450048) can0 00000258#0000345BFFFFFF94
(1727704271.450196) can0 00000278#0000000080006001
(1727704271.451434) can0 00000259#FFFFA194FFFFFF90
(1727704271.451580) can0 00000279#0000000080006001
(1727704271.452559) can0 00000257#0000C28B00000000
(1727704271.452703) can0 00000277#FFFFFFF580006001
(1727704271.455044) can0 00000258#0000345B000000C4
(1727704271.455192) can0 00000278#0000000080006001
(1727704271.456432) can0 00000259#FFFFA194FFFFFFD4
(1727704271.456578) can0 00000279#0000000080006001
(1727704271.457555) can0 00000257#0000C28B00000080
(1727704271.457699) can0 00000277#FFFFFFF580006001
(1727704271.460042) can0 00000258#0000345B000001A8
(1727704271.460190) can0 00000278#0000000080006001
(1727704271.461432) can0 00000259#FFFFA19400000000
(1727704271.461578) can0 00000279#0000000080006001
(1727704271.462554) can0 00000257#0000C28B00000040
(1727704271.462698) can0 00000277#FFFFFFF580006001
(1727704271.463057) can0 00000656#8013000000000000
(1727704271.465043) can0 00000258#0000345BFFFFFF14
(1727704271.465191) can0 00000278#0000000080006001
(1727704271.466429) can0 00000259#FFFFA19400000030
(1727704271.466575) can0 00000279#0000000080006001
(1727704271.466933) can0 00000658#8013000000000000
(1727704271.467553) can0 00000257#0000C28B00000000
(1727704271.467697) can0 00000277#FFFFFFF580006001
(1727704271.470042) can0 00000258#0000345B00000000
(1727704271.470190) can0 00000278#0000000080006001
(1727704271.470542) can0 00000657#8013000000000000
(1727704271.471429) can0 00000259#FFFFA19400000000
(1727704271.471575) can0 00000279#0000000080006001
(1727704271.472552) can0 00000257#0000C28B00000000
(1727704271.472696) can0 00000277#FFFFFFF580006001
(1727704271.475038) can0 00000258#0000345B000000D4
(1727704271.475186) can0 00000278#0000000080006001
(1727704271.476426) can0 00000259#FFFFA194FFFFFFFC
(1727704271.476572) can0 00000279#0000000080006001
(1727704271.477551) can0 00000257#0000C28B00000000
(1727704271.477695) can0 00000277#FFFFFFF580006001
(1727704271.480038) can0 00000258#0000345BFFFFFF68
(1727704271.480186) can0 00000278#0000000080006001
(1727704271.481425) can0 00000259#FFFFA19400000000
(1727704271.481571) can0 00000279#0000000080006001
(1727704271.482549) can0 00000257#0000C28B00000000
(1727704271.482693) can0 00000277#FFFFFFF580006001
(1727704271.485037) can0 00000258#0000345BFFFFFF68
(1727704271.485183) can0 00000278#FFFFFFFF80006001
(1727704271.486424) can0 00000259#FFFFA19400000000
(1727704271.486570) can0 00000279#0000000080006001
(1727704271.487547) can0 00000257#0000C28B00000000
(1727704271.487691) can0 00000277#FFFFFFF580006001
(1727704271.490035) can0 00000258#0000345B00000068
(1727704271.490181) can0 00000278#FFFFFFFF80006001
(1727704271.491420) can0 00000259#FFFFA194FFFFFF9C
(1727704271.491567) can0 00000279#0000000080006001
(1727704271.492545) can0 00000257#0000C28B00000000
(1727704271.492689) can0 00000277#FFFFFFF580006001
(1727704271.495032) can0 00000258#0000345B00000094
(1727704271.495178) can0 00000278#FFFFFFFF80006001
(1727704271.496417) can0 00000259#FFFFA194FFFFFE9C
(1727704271.496563) can0 00000279#0000000080006001
(1727704271.497541) can0 00000257#0000C28B000000A8
(1727704271.497685) can0 00000277#FFFFFFF580006001
(1727704271.500033) can0 00000258#0000345B0000005C
(1727704271.500179) can0 00000278#FFFFFFFF80006001
(1727704271.501419) can0 00000259#FFFFA194FFFFFFE0
(1727704271.501565) can0 00000279#0000000080006001
(1727704271.502541) can0 00000257#0000C28BFFFFFFFC
(1727704271.502685) can0 00000277#FFFFFFF580006001
(1727704271.505032) can0 00000258#0000345BFFFFFE38
(1727704271.505178) can0 00000278#FFFFFFFF80006001
(1727704271.506417) can0 00000259#FFFFA19400000004
(1727704271.506563) can0 00000279#0000000080006001
(1727704271.507540) can0 00000257#0000C28B00000000
(1727704271.507684) can0 00000277#FFFFFFF680006001
(1727704271.510028) can0 00000258#0000345B000001C4
(1727704271.510174) can0 00000278#FFFFFFFF80006001
(1727704271.511416) can0 00000259#FFFFA19400000000
(1727704271.511562) can0 00000279#0000000080006001
(1727704271.511912) can0 00001040#
(1727704271.512539) can0 00000257#0000C28B00000000
(1727704271.512683) can0 00000277#FFFFFFF580006001
(1727704271.513041) can0 00000656#8013000000000000
(1727704271.515026) can0 00000258#0000345B000001FC
(1727704271.515172) can0 00000278#FFFFFFFF80006001
(1727704271.516414) can0 00000259#FFFFA19400000000
(1727704271.516559) can0 00000279#FFFFFFFF80006001
(1727704271.516917) can0 00000658#8013000000000000
(1727704271.517537) can0 00000257#0000C28B00000000
(1727704271.517681) can0 00000277#FFFFFFF580006001
(1727704271.520026) can0 00000258#0000345B000000A8
(1727704271.520172) can0 00000278#FFFFFFFF80006001
(1727704271.520526) can0 00000657#8013000000000000
(1727704271.521413) can0 00000259#FFFFA19400000000
(1727704271.521559) can0 00000279#0000000080006001
(1727704271.522535) can0 00000257#0000C28B00000000
(1727704271.522679) can0 00000277#FFFFFFF580006001
(1727704271.525024) can0 00000258#0000345BFFFFFF08
(1727704271.525170) can0 00000278#FFFFFFFF80006001
(1727704271.526413) can0 00000259#FFFFA19400000028
(1727704271.526557) can0 00000279#0000000080006001
(1727704271.527534) can0 00000257#0000C28B00000000
(1727704271.527679) can0 00000277#FFFFFFF580006001
(1727704271.530023) can0 00000258#0000345BFFFFFFE8
(1727704271.530169) can0 00000278#FFFFFFFF80006001
(1727704271.531407) can0 00000259#FFFFA194FFFFFEF4
(1727704271.531553) can0 00000279#0000000080006001
(1727704271.532533) can0 00000257#0000C28B00000000
(1727704271.532677) can0 00000277#FFFFFFF580006001
(1727704271.535020) can0 00000258#0000345B000000A0
(1727704271.535167) can0 00000278#FFFFFFFF80006001
(1727704271.536408) can0 00000259#FFFFA194FFFFFFC0
(1727704271.536553) can0 00000279#FFFFFFFF80006001
(1727704271.537531) can0 00000257#0000C28B00000000
(1727704271.537675) can0 00000277#FFFFFFF580006001
(1727704271.540018) can0 00000258#0000345B00000084
(1727704271.540164) can0 00000278#FFFFFFFF80006001
(1727704271.541405) can0 00000259#FFFFA194000000A4
(1727704271.541550) can0 00000279#FFFFFFFF80006001
(1727704271.542529) can0 00000257#0000C28B00000000
(1727704271.542673) can0 00000277#FFFFFFF580006001
(1727704271.545018) can0 00000258#0000345B00000058
(1727704271.545164) can0 00000278#FFFFFFFF80006001
(1727704271.546402) can0 00000259#FFFFA194FFFFFF6C
(1727704271.546548) can0 00000279#0000000080006001
(1727704271.547528) can0 00000257#0000C28B00000000
(1727704271.547672) can0 00000277#FFFFFFF580006001
(1727704271.550016) can0 00000258#0000345B00000000
(1727704271.550163) can0 00000278#FFFFFFFF80006001
(1727704271.551402) can0 00000259#FFFFA194FFFFFFDC
(1727704271.551548) can0 00000279#0000000080006001
(1727704271.552525) can0 00000257#0000C28B00000030
(1727704271.552669) can0 00000277#FFFFFFF580006001
(1727704271.555015) can0 00000258#0000345B00000000
(1727704271.555161) can0 00000278#FFFFFFFF80006001
(1727704271.556401) can0 00000259#FFFFA19400000000
(1727704271.556547) can0 00000279#FFFFFFFF80006001
(1727704271.557524) can0 00000257#0000C28B00000000
(1727704271.557668) can0 00000277#FFFFFFF580006001
(1727704271.560015) can0 00000258#0000345B00000004
(1727704271.560161) can0 00000278#0000000080006001
(1727704271.561401) can0 00000259#FFFFA19400000000
(1727704271.561547) can0 00000279#0000000080006001
(1727704271.562523) can0 00000257#0000C28B00000000
(1727704271.562667) can0 00000277#FFFFFFF580006001
(1727704271.563024) can0 00000656#8013000000000000
(1727704271.565015) can0 00000258#0000345B00000010
(1727704271.565161) can0 00000278#0000000080006001
(1727704271.566399) can0 00000259#FFFFA19400000000
(1727704271.566545) can0 00000279#0000000080006001
(1727704271.566902) can0 00000658#8013000000000000
(1727704271.567522) can0 00000257#0000C28B00000000
(1727704271.567666) can0 00000277#FFFFFFF580006001
(1727704271.570009) can0 00000258#0000345BFFFFFFA4
(1727704271.570155) can0 00000278#FFFFFFFF80006001
(1727704271.570510) can0 00000657#8013000000000000
(1727704271.571397) can0 00000259#FFFFA19400000000
(1727704271.571543) can0 00000279#0000000080006001
(1727704271.572520) can0 00000257#0000C28BFFFFFFD0
(1727704271.572664) can0 00000277#FFFFFFF580006001
(1727704271.575011) can0 00000258#0000345BFFFFFFF8
(1727704271.575157) can0 00000278#FFFFFFFF80006001
(1727704271.576393) can0 00000259#FFFFA194FFFFFF1C
(1727704271.576538) can0 00000279#FFFFFFFF80006001
(1727704271.577518) can0 00000257#0000C28B00000000
(1727704271.577662) can0 00000277#FFFFFFF580006001
(1727704271.580008) can0 00000258#0000345BFFFFFFE0
(1727704271.580156) can0 00000278#0000000080006001
(1727704271.581394) can0 00000259#FFFFA19400000000
(1727704271.581540) can0 00000279#0000000080006001
(1727704271.582516) can0 00000257#0000C28B00000000
(1727704271.582661) can0 00000277#FFFFFFF580006001
(1727704271.585004) can0 00000258#0000345B000000C4
(1727704271.585152) can0 00000278#0000000080006001
(1727704271.586393) can0 00000259#FFFFA19400000000
(1727704271.586539) can0 00000279#0000000080006001
(1727704271.587512) can0 00000257#0000C28B000000F0
(1727704271.587656) can0 00000277#FFFFFFF580006001
(1727704271.590004) can0 00000258#0000345BFFFFFE44
(1727704271.590152) can0 00000278#0000000080006001
(1727704271.591391) can0 00000259#FFFFA19400000000
(1727704271.591537) can0 00000279#0000000080006001
(1727704271.592516) can0 00000257#0000C28B00000000
(1727704271.592658) can0 00000277#FFFFFFF580006001
(1727704271.595003) can0 00000258#0000345BFFFFFFFC
(1727704271.595151) can0 00000278#0000000080006001
(1727704271.596389) can0 00000259#FFFFA19400000000
(1727704271.596535) can0 00000279#0000000080006001
(1727704271.597512) can0 00000257#0000C28B00000000
(1727704271.597656) can0 00000277#FFFFFFF580006001
(1727704271.600001) can0 00000258#0000345B00000000
(1727704271.600149) can0 00000278#0000000080006001
(1727704271.601388) can0 00000259#FFFFA194000000E0
(1727704271.601534) can0 00000279#0000000080006001
(1727704271.602510) can0 00000257#0000C28B00000000
(1727704271.602654) can0 00000277#FFFFFFF580006001
(1727704271.604998) can0 00000258#0000345B00000018
(1727704271.605146) can0 00000278#0000000080006001
(1727704271.606386) can0 00000259#FFFFA19400000000
(1727704271.606532) can0 00000279#0000000080006001
(1727704271.607509) can0 00000257#0000C28B00000000
(1727704271.607653) can0 00000277#FFFFFFF580006001
(1727704271.609998) can0 00000258#0000345B00000000
(1727704271.610146) can0 00000278#0000000080006001
(1727704271.611384) can0 00000259#FFFFA19400000000
(1727704271.611530) can0 00000279#0000000080006001
(1727704271.612507) can0 00000257#0000C28B00000000
(1727704271.612651) can0 00000277#FFFFFFF580006001
(1727704271.613009) can0 00000656#8013000000000000
(1727704271.614997) can0 00000258#0000345BFFFFFFFC
(1727704271.615145) can0 00000278#0000000080006001
(1727704271.616383) can0 00000259#FFFFA19400000000
(1727704271.616529) can0 00000279#0000000080006001
(1727704271.616886) can0 00000658#8013000000000000
(1727704271.617506) can0 00000257#0000C28B00000000
(1727704271.617650) can0 00000277#FFFFFFF580006001
(1727704271.619995) can0 00000258#0000345B00000000
(1727704271.620143) can0 00000278#0000000080006001
(1727704271.620495) can0 00000657#8013000000000000
(1727704271.621381) can0 00000259#FFFFA19400000000
(1727704271.621527) can0 00000279#0000000080006001
(1727704271.622504) can0 00000257#0000C28B00000000
(1727704271.622648) can0 00000277#FFFFFFF580006001
(1727704271.624992) can0 00000258#0000345BFFFFFEAC
(1727704271.625140) can0 00000278#0000000080006001
(1727704271.626378) can0 00000259#FFFFA194FFFFFF9C
(1727704271.626524) can0 00000279#0000000080006001
(1727704271.627502) can0 00000257#0000C28B00000000
(1727704271.627646) can0 00000277#FFFFFFF580006001
(1727704271.629990) can0 00000258#0000345BFFFFFFA4
(1727704271.630138) can0 00000278#0000000080006001
(1727704271.631377) can0 00000259#FFFFA19400000004
(1727704271.631523) can0 00000279#0000000080006001
(1727704271.632500) can0 00000257#0000C28B00000000
(1727704271.632644) can0 00000277#FFFFFFF580006001
(1727704271.634991) can0 00000258#0000345B00000000
(1727704271.635139) can0 00000278#0000000080006001
(1727704271.636376) can0 00000259#FFFFA19400000000
(1727704271.636522) can0 00000279#0000000080006001
(1727704271.637499) can0 00000257#0000C28B00000000
(1727704271.637643) can0 00000277#FFFFFFF580006001
(1727704271.639989) can0 00000258#0000345B00000000
(1727704271.640137) can0 00000278#0000000080006001
(1727704271.641375) can0 00000259#FFFFA19400000000
(1727704271.641521) can0 00000279#0000000080006001
(1727704271.642497) can0 00000257#0000C28B00000000
(1727704271.642641) can0 00000277#FFFFFFF580006001
(1727704271.644987) can0 00000258#0000345B000000A8
(1727704271.645135) can0 00000278#0000000080006001
(1727704271.646373) can0 00000259#FFFFA19400000058
(1727704271.646519) can0 00000279#0000000080006001
(1727704271.647496) can0 00000257#0000C28B00000000
(1727704271.647640) can0 00000277#FFFFFFF680006001
(1727704271.649985) can0 00000258#0000345BFFFFFFFC
(1727704271.650133) can0 00000278#0000000080006001
(1727704271.651372) can0 00000259#FFFFA19400000000
(1727704271.651520) can0 00000279#0000000080006001
(1727704271.652494) can0 00000257#0000C28B00000000
(1727704271.652638) can0 00000277#FFFFFFF580006001
(1727704271.654984) can0 00000258#0000345BFFFFFF8C
(1727704271.655132) can0 00000278#0000000080006001
(1727704271.656369) can0 00000259#FFFFA194FFFFFF88
(1727704271.656514) can0 00000279#FFFFFFFF80006001
(1727704271.657493) can0 00000257#0000C28B00000000
(1727704271.657637) can0 00000277#FFFFFFF580006001
(1727704271.659982) can0 00000258#0000345BFFFFFFA8
(1727704271.660130) can0 00000278#0000000080006001
(1727704271.661368) can0 00000259#FFFFA194FFFFFFC0
(1727704271.661514) can0 00000279#0000000080006001
(1727704271.662491) can0 00000257#0000C28B00000000
(1727704271.662635) can0 00000277#FFFFFFF580006001
(1727704271.662993) can0 00000656#8013000000000000
(1727704271.664979) can0 00000258#0000345B000000D4
(1727704271.665127) can0 00000278#0000000080006001
(1727704271.666367) can0 00000259#FFFFA194000000EC
(1727704271.666512) can0 00000279#0000000080006001
(1727704271.666869) can0 00000658#8013000000000000
(1727704271.667489) can0 00000257#0000C28B00000000
(1727704271.667633) can0 00000277#FFFFFFF580006001
(1727704271.669977) can0 00000258#0000345B000000F4
(1727704271.670125) can0 00000278#0000000080006001
(1727704271.670479) can0 00000657#8013000000000000
(1727704271.671363) can0 00000259#FFFFA194FFFFFF68
(1727704271.671509) can0 00000279#0000000080006001
(1727704271.672488) can0 00000257#0000C28B00000000
(1727704271.672632) can0 00000277#FFFFFFF580006001
(1727704271.674979) can0 00000258#0000345BFFFFFFF4
(1727704271.675127) can0 00000278#0000000080006001
(1727704271.676363) can0 00000259#FFFFA19400000060
(1727704271.676508) can0 00000279#FFFFFFFF80006001
(1727704271.677485) can0 00000257#0000C28BFFFFFFFC
(1727704271.677629) can0 00000277#FFFFFFF580006001
(1727704271.679976) can0 00000258#0000345BFFFFFE94
(1727704271.680124) can0 00000278#0000000080006001
(1727704271.681360) can0 00000259#FFFFA194FFFFFFD8
(1727704271.681506) can0 00000279#0000000080006001
(1727704271.682484) can0 00000257#0000C28B00000000
(1727704271.682628) can0 00000277#FFFFFFF580006001
(1727704271.684974) can0 00000258#0000345BFFFFFFE8
(1727704271.685122) can0 00000278#FFFFFFFF80006001
(1727704271.686359) can0 00000259#FFFFA19400000004
(1727704271.686505) can0 00000279#0000000080006001
(1727704271.687483) can0 00000257#0000C28B00000000
(1727704271.687627) can0 00000277#FFFFFFF680006001
(1727704271.689972) can0 00000258#0000345B00000194
(1727704271.690122) can0 00000278#FFFFFFFF80006001
(1727704271.691359) can0 00000259#FFFFA19400000000
(1727704271.691506) can0 00000279#0000000080006001
(1727704271.692479) can0 00000257#0000C28BFFFFFFD4
(1727704271.692623) can0 00000277#FFFFFFF580006001
(1727704271.694971) can0 00000258#0000345B000000CC
(1727704271.695117) can0 00000278#FFFFFFFF80006001
(1727704271.696356) can0 00000259#FFFFA19400000048
(1727704271.696501) can0 00000279#FFFFFFFF80006001
(1727704271.697479) can0 00000257#0000C28B00000000
(1727704271.697623) can0 00000277#FFFFFFF580006001
(1727704271.699970) can0 00000258#0000345BFFFFFE40
(1727704271.700116) can0 00000278#FFFFFFFF80006001
(1727704271.701355) can0 00000259#FFFFA1940000015C
(1727704271.701500) can0 00000279#FFFFFFFF80006001
(1727704271.702478) can0 00000257#0000C28B00000000
(1727704271.702623) can0 00000277#FFFFFFF580006001
(1727704271.704968) can0 00000258#0000345B00000060
(1727704271.705114) can0 00000278#FFFFFFFF80006001
(1727704271.706354) can0 00000259#FFFFA19400000070
(1727704271.706500) can0 00000279#0000000080006001
(1727704271.707477) can0 00000257#0000C28B00000000
(1727704271.707623) can0 00000277#FFFFFFF680006001
(1727704271.709967) can0 00000258#0000345B00000000
(1727704271.710113) can0 00000278#FFFFFFFF80006001
(1727704271.711353) can0 00000259#FFFFA19400000000
(1727704271.711498) can0 00000279#FFFFFFFF80006001
(1727704271.712018) can0 00001040#
(1727704271.712475) can0 00000257#0000C28B00000000
(1727704271.712623) can0 00000277#FFFFFFF580006001
(1727704271.712976) can0 00000656#8013000000000000
(1727704271.714964) can0 00000258#0000345B00000064
(1727704271.715110) can0 00000278#FFFFFFFF80006001
(1727704271.716350) can0 00000259#FFFFA194000000AC
(1727704271.716495) can0 00000279#FFFFFFFF80006001
(1727704271.716854) can0 00000658#8013000000000000
(1727704271.717474) can0 00000257#0000C28B00000000
(1727704271.717618) can0 00000277#FFFFFFF580006001
(1727704271.719964) can0 00000258#0000345B00000030
(1727704271.720110) can0 00000278#FFFFFFFF80006001
(1727704271.720463) can0 00000657#8013000000000000
(1727704271.721349) can0 00000259#FFFFA194FFFFFF40
(1727704271.721494) can0 00000279#FFFFFFFF80006001
(1727704271.722472) can0 00000257#0000C28B00000000
(1727704271.722616) can0 00000277#FFFFFFF580006001
(1727704271.724962) can0 00000258#0000345BFFFFFF54
(1727704271.725108) can0 00000278#FFFFFFFF80006001
(1727704271.726346) can0 00000259#FFFFA194FFFFFF64
(1727704271.726492) can0 00000279#0000000080006001
(1727704271.727470) can0 00000257#0000C28B00000000
(1727704271.727614) can0 00000277#FFFFFFF580006001
(1727704271.729961) can0 00000258#0000345BFFFFFF5C
(1727704271.730107) can0 00000278#FFFFFFFF80006001
(1727704271.731346) can0 00000259#FFFFA19400000000
(1727704271.731491) can0 00000279#FFFFFFFF80006001
(1727704271.732468) can0 00000257#0000C28B00000000
(1727704271.732612) can0 00000277#FFFFFFF580006001
(1727704271.734961) can0 00000258#0000345BFFFFFFF0
(1727704271.735107) can0 00000278#FFFFFFFF80006001
(1727704271.736344) can0 00000259#FFFFA19400000104
(1727704271.736490) can0 00000279#FFFFFFFF80006001
(1727704271.737467) can0 00000257#0000C28B00000000
(1727704271.737610) can0 00000277#FFFFFFF580006001
(1727704271.739958) can0 00000258#0000345BFFFFFE40
(1727704271.740104) can0 00000278#FFFFFFFF80006001
(1727704271.741343) can0 00000259#FFFFA19400000130
(1727704271.741488) can0 00000279#FFFFFFFF80006001
(1727704271.742466) can0 00000257#0000C28B00000000
(1727704271.742610) can0 00000277#FFFFFFF580006001
(1727704271.744955) can0 00000258#0000345BFFFFFE3C
(1727704271.745101) can0 00000278#FFFFFFFF80006001
(1727704271.746340) can0 00000259#FFFFA194FFFFFFD8
(1727704271.746486) can0 00000279#0000000080006001
(1727704271.747464) can0 00000257#0000C28B00000000
(1727704271.747608) can0 00000277#FFFFFFF580006001
(1727704271.749952) can0 00000258#0000345B00000088
(1727704271.750098) can0 00000278#FFFFFFFF80006001
(1727704271.751338) can0 00000259#FFFFA19400000014
(1727704271.751483) can0 00000279#FFFFFFFF80006001
(1727704271.752462) can0 00000257#0000C28B00000000
(1727704271.752606) can0 00000277#FFFFFFF580006001
(1727704271.754951) can0 00000258#0000345B00000004
(1727704271.755097) can0 00000278#FFFFFFFF80006001
(1727704271.756336) can0 00000259#FFFFA19400000078
(1727704271.756481) can0 00000279#FFFFFFFF80006001
(1727704271.757460) can0 00000257#0000C28B00000000
(1727704271.757604) can0 00000277#FFFFFFF580006001
(1727704271.759952) can0 00000258#0000345B00000010
(1727704271.760099) can0 00000278#FFFFFFFF80006001
(1727704271.761335) can0 00000259#FFFFA194FFFFFF08
(1727704271.761480) can0 00000279#FFFFFFFF80006001
(1727704271.762459) can0 00000257#0000C28B00000000
(1727704271.762603) can0 00000277#FFFFFFF580006001
(1727704271.762960) can0 00000656#8013000000000000
(1727704271.764949) can0 00000258#0000345BFFFFFFCC
(1727704271.765095) can0 00000278#FFFFFFFF80006001
(1727704271.766336) can0 00000259#FFFFA1940000000C
(1727704271.766483) can0 00000279#0000000080006001
(1727704271.766839) can0 00000658#8013000000000000
(1727704271.767458) can0 00000257#0000C28B00000000
(1727704271.767602) can0 00000277#FFFFFFF680006001
(1727704271.769948) can0 00000258#0000345B000000C0
(1727704271.770094) can0 00000278#FFFFFFFF80006001
(1727704271.770448) can0 00000657#8013000000000000
(1727704271.771334) can0 00000259#FFFFA19400000000
(1727704271.771480) can0 00000279#0000000080006001
(1727704271.772456) can0 00000257#0000C28B00000000
(1727704271.772600) can0 00000277#FFFFFFF580006001
(1727704271.774946) can0 00000258#0000345BFFFFFFBC
(1727704271.775092) can0 00000278#FFFFFFFF80006001
(1727704271.776332) can0 00000259#FFFFA19400000000
(1727704271.776477) can0 00000279#FFFFFFFF80006001
(1727704271.777454) can0 00000257#0000C28B00000000
(1727704271.777598) can0 00000277#FFFFFFF580006001
(1727704271.779943) can0 00000258#0000345BFFFFFE3C
(1727704271.780090) can0 00000278#FFFFFFFF80006001
(1727704271.781328) can0 00000259#FFFFA194FFFFFFF0
(1727704271.781473) can0 00000279#FFFFFFFF80006001
(1727704271.782452) can0 00000257#0000C28B00000000
(1727704271.782596) can0 00000277#FFFFFFF580006001
(1727704271.784943) can0 00000258#0000345B000001C0
(1727704271.785089) can0 00000278#FFFFFFFF80006001
(1727704271.786329) can0 00000259#FFFFA19400000000
(1727704271.786475) can0 00000279#0000000080006001
(1727704271.787450) can0 00000257#0000C28C0000015C
(1727704271.787594) can0 00000277#FFFFFFF580006001
(1727704271.789942) can0 00000258#0000345B00000000
(1727704271.790088) can0 00000278#FFFFFFFF80006001
(1727704271.791327) can0 00000259#FFFFA194FFFFFFA8
(1727704271.791473) can0 00000279#0000000080006001
(1727704271.792447) can0 00000257#0000C28B00000004
(1727704271.792592) can0 00000277#FFFFFFF580006001
(1727704271.794940) can0 00000258#0000345BFFFFFFE0
(1727704271.795086) can0 00000278#FFFFFFFF80006001
(1727704271.796323) can0 00000259#FFFFA194FFFFFE9C
(1727704271.796468) can0 00000279#FFFFFFFF80006001
(1727704271.797448) can0 00000257#0000C28B00000000
(1727704271.797592) can0 00000277#FFFFFFF580006001
(1727704271.799939) can0 00000258#0000345B0000007C
(1727704271.800085) can0 00000278#FFFFFFFF80006001
(1727704271.801323) can0 00000259#FFFFA194FFFFFF54
(1727704271.801469) can0 00000279#0000000080006001
(1727704271.802445) can0 00000257#0000C28BFFFFFFC8
(1727704271.802589) can0 00000277#FFFFFFF580006001
(1727704271.804937) can0 00000258#0000345B00000000
(1727704271.805083) can0 00000278#FFFFFFFF80006001
(1727704271.806320) can0 00000259#FFFFA194FFFFFF4C
(1727704271.806466) can0 00000279#0000000080006001
(1727704271.807443) can0 00000257#0000C28B00000040
(1727704271.807587) can0 00000277#FFFFFFF680006001
(1727704271.809935) can0 00000258#0000345BFFFFFF30
(1727704271.810081) can0 00000278#FFFFFFFF80006001
(1727704271.811321) can0 00000259#FFFFA19400000000
(1727704271.811467) can0 00000279#0000000080006001
(1727704271.812443) can0 00000257#0000C28B00000000
(1727704271.812587) can0 00000277#FFFFFFF580006001
(1727704271.812944) can0 00000656#8013000000000000
(1727704271.814934) can0 00000258#0000345B00000000
(1727704271.815080) can0 00000278#FFFFFFFF80006001
(1727704271.816319) can0 00000259#FFFFA19400000000
(1727704271.816465) can0 00000279#FFFFFFFF80006001
(1727704271.816823) can0 00000658#8013000000000000
(1727704271.817441) can0 00000257#0000C28B00000000
(1727704271.817586) can0 00000277#FFFFFFF580006001
(1727704271.819933) can0 00000258#0000345B00000068
(1727704271.820079) can0 00000278#FFFFFFFF80006001
(1727704271.820432) can0 00000657#8013000000000000
(1727704271.821318) can0 00000259#FFFFA19400000000
(1727704271.821464) can0 00000279#0000000080006001
(1727704271.822440) can0 00000257#0000C28B00000000
(1727704271.822584) can0 00000277#FFFFFFF680006001
(1727704271.824931) can0 00000258#0000345BFFFFFF80
(1727704271.825077) can0 00000278#FFFFFFFF80006001
(1727704271.826316) can0 00000259#FFFFA194FFFFFF94
(1727704271.826462) can0 00000279#0000000080006001
(1727704271.827438) can0 00000257#0000C28B00000000
(1727704271.827582) can0 00000277#FFFFFFF680006001
(1727704271.829930) can0 00000258#0000345B00000044
(1727704271.830074) can0 00000278#FFFFFFFF80006001
(1727704271.831314) can0 00000259#FFFFA194FFFFFF40
(1727704271.831460) can0 00000279#0000000080006001
(1727704271.832436) can0 00000257#0000C28B00000000
(1727704271.832580) can0 00000277#FFFFFFF580006001
(1727704271.834930) can0 00000258#0000345B00000000
(1727704271.835073) can0 00000278#FFFFFFFF80006001
(1727704271.836314) can0 00000259#FFFFA19400000040
(1727704271.836459) can0 00000279#FFFFFFFF80006001
(1727704271.837435) can0 00000257#0000C28B00000000
(1727704271.837579) can0 00000277#FFFFFFF580006001
(1727704271.837722) can0 000014D1#
(1727704271.839930) can0 00000258#0000345B00000000
(1727704271.840073) can0 00000278#FFFFFFFF80006001
(1727704271.841310) can0 00000259#FFFFA194FFFFFFFC
(1727704271.841457) can0 00000279#0000000080006001
(1727704271.841602) can0 000014D3#
(1727704271.842433) can0 00000257#0000C28B00000000
(1727704271.842577) can0 00000277#FFFFFFF580006001
(1727704271.844925) can0 00000258#0000345B00000000
(1727704271.845071) can0 00000278#FFFFFFFF80006001
(1727704271.845212) can0 000014D2#
(1727704271.846309) can0 00000259#FFFFA194000000D0
(1727704271.846455) can0 00000279#0000000080006001
(1727704271.847432) can0 00000257#0000C28B00000000
(1727704271.847576) can0 00000277#FFFFFFF580006001
(1727704271.849922) can0 00000258#0000345BFFFFFF90
(1727704271.850068) can0 00000278#FFFFFFFF80006001
(1727704271.851308) can0 00000259#FFFFA194000000E4
(1727704271.851454) can0 00000279#0000000080006001
(1727704271.852431) can0 00000257#0000C28B00000000
(1727704271.852574) can0 00000277#FFFFFFF580006001
(1727704271.854921) can0 00000258#0000345BFFFFFF7C
(1727704271.855067) can0 00000278#FFFFFFFF80006001
(1727704271.856305) can0 00000259#FFFFA194FFFFFEF8
(1727704271.856450) can0 00000279#FFFFFFFF80006001
(1727704271.857431) can0 00000257#0000C28B00000000
(1727704271.857572) can0 00000277#FFFFFFF580006001
(1727704271.859918) can0 00000258#0000345B00000084
(1727704271.860064) can0 00000278#FFFFFFFF80006001
(1727704271.861303) can0 00000259#FFFFA194000000CC
(1727704271.861448) can0 00000279#FFFFFFFF80006001
(1727704271.862431) can0 00000257#0000C28B00000000
(1727704271.862571) can0 00000277#FFFFFFF580006001
(1727704271.862931) can0 00000656#8013000000000000
(1727704271.864918) can0 00000258#0000345B00000090
(1727704271.865064) can0 00000278#FFFFFFFF80006001
(1727704271.866302) can0 00000259#FFFFA1940000003C
(1727704271.866447) can0 00000279#FFFFFFFF80006001
(1727704271.866806) can0 00000658#8013000000000000
(1727704271.867425) can0 00000257#0000C28B00000000
(1727704271.867569) can0 00000277#FFFFFFF580006001
(1727704271.869919) can0 00000258#0000345BFFFFFFF0
(1727704271.870065) can0 00000278#FFFFFFFF80006001
(1727704271.870417) can0 00000657#8013000000000000
(1727704271.871302) can0 00000259#FFFFA194FFFFFFB0
(1727704271.871447) can0 00000279#FFFFFFFF80006001
(1727704271.872424) can0 00000257#0000C28B00000000
(1727704271.872568) can0 00000277#FFFFFFF580006001
(1727704271.874915) can0 00000258#0000345B00000000
(1727704271.875061) can0 00000278#FFFFFFFF80006001
(1727704271.876300) can0 00000259#FFFFA19400000068
(1727704271.876445) can0 00000279#FFFFFFFF80006001
(1727704271.877420) can0 00000257#0000C28BFFFFFF9C
(1727704271.877564) can0 00000277#FFFFFFF580006001
(1727704271.879913) can0 00000258#0000345B00000000
(1727704271.880059) can0 00000278#FFFFFFFF80006001
(1727704271.881297) can0 00000259#FFFFA19400000048
(1727704271.881442) can0 00000279#FFFFFFFF80006001
(1727704271.882420) can0 00000257#0000C28B00000000
(1727704271.882564) can0 00000277#FFFFFFF580006001
(1727704271.884912) can0 00000258#0000345B00000000
(1727704271.885058) can0 00000278#FFFFFFFF80006001
(1727704271.886295) can0 00000259#FFFFA194FFFFFE40
(1727704271.886441) can0 00000279#0000000080006001
(1727704271.887419) can0 00000257#0000C28B00000000
(1727704271.887563) can0 00000277#FFFFFFF580006001
(1727704271.889911) can0 00000258#0000345B00000000
(1727704271.890057) can0 00000278#FFFFFFFF80006001
(1727704271.891295) can0 00000259#FFFFA194FFFFFF60
(1727704271.891441) can0 00000279#0000000080006001
(1727704271.892417) can0 00000257#0000C28B00000000
(1727704271.892561) can0 00000277#FFFFFFF580006001
(1727704271.894908) can0 00000258#0000345BFFFFFF58
(1727704271.895054) can0 00000278#FFFFFFFF80006001
(1727704271.896291) can0 00000259#FFFFA194FFFFFF74
(1727704271.896437) can0 00000279#FFFFFFFF80006001
(1727704271.897415) can0 00000257#0000C28B00000000
(1727704271.897559) can0 00000277#FFFFFFF580006001
(1727704271.899907) can0 00000258#0000345B00000034
(1727704271.900053) can0 00000278#FFFFFFFF80006001
(1727704271.901292) can0 00000259#FFFFA194FFFFFFD4
(1727704271.901437) can0 00000279#FFFFFFFF80006001
(1727704271.902413) can0 00000257#0000C28B00000000
(1727704271.902558) can0 00000277#FFFFFFF580006001
(1727704271.904904) can0 00000258#0000345B00000084
(1727704271.905050) can0 00000278#FFFFFFFF80006001
(1727704271.906291) can0 00000259#FFFFA194FFFFFFCC
(1727704271.906437) can0 00000279#0000000080006001
(1727704271.907413) can0 00000257#0000C28B00000000
(1727704271.907557) can0 00000277#FFFFFFF580006001
(1727704271.909902) can0 00000258#0000345B000000D4
(1727704271.910048) can0 00000278#FFFFFFFF80006001
(1727704271.911289) can0 00000259#FFFFA194FFFFFF94
(1727704271.911434) can0 00000279#FFFFFFFF80006001
(1727704271.911769) can0 00001040#
(1727704271.912411) can0 00000257#0000C28B00000000
(1727704271.912555) can0 00000277#FFFFFFF580006001
(1727704271.912912) can0 00000656#8013000000000000
(1727704271.914903) can0 00000258#0000345B00000000
(1727704271.915049) can0 00000278#FFFFFFFF80006001
(1727704271.916287) can0 00000259#FFFFA194FFFFFF88
(1727704271.916434) can0 00000279#FFFFFFFF80006001
(1727704271.916791) can0 00000658#8013000000000000
(1727704271.917409) can0 00000257#0000C28B00000000
(1727704271.917554) can0 00000277#FFFFFFF580006001
(1727704271.919900) can0 00000258#0000345BFFFFFF9C
(1727704271.920046) can0 00000278#FFFFFFFF80006001
(1727704271.920401) can0 00000657#8013000000000000
(1727704271.921286) can0 00000259#FFFFA194FFFFFFB0
(1727704271.921435) can0 00000279#FFFFFFFF80006001
(1727704271.922408) can0 00000257#0000C28B00000000
(1727704271.922552) can0 00000277#FFFFFFF580006001
(1727704271.924900) can0 00000258#0000345B00000000
(1727704271.925046) can0 00000278#FFFFFFFF80006001
(1727704271.926285) can0 00000259#FFFFA19400000000
(1727704271.926435) can0 00000279#0000000080006001
(1727704271.927405) can0 00000257#0000C28B00000008
(1727704271.927549) can0 00000277#FFFFFFF580006001
(1727704271.929898) can0 00000258#0000345BFFFFFF2C
(1727704271.930044) can0 00000278#FFFFFFFF80006001
(1727704271.931280) can0 00000259#FFFFA194FFFFFF18
(1727704271.931425) can0 00000279#FFFFFFFF80006001
(1727704271.932404) can0 00000257#0000C28B00000000
(1727704271.932548) can0 00000277#FFFFFFF580006001
(1727704271.934894) can0 00000258#0000345B00000098
(1727704271.935040) can0 00000278#FFFFFFFF80006001
(1727704271.936280) can0 00000259#FFFFA194FFFFFFEC
(1727704271.936425) can0 00000279#FFFFFFFF80006001
(1727704271.937403) can0 00000257#0000C28B00000000
(1727704271.937547) can0 00000277#FFFFFFF580006001
(1727704271.939895) can0 00000258#0000345BFFFFFF54
(1727704271.940041) can0 00000278#FFFFFFFF80006001
(1727704271.941280) can0 00000259#FFFFA19400000000
(1727704271.941425) can0 00000279#FFFFFFFF80006001
(1727704271.942401) can0 00000257#0000C28B00000000
(1727704271.942545) can0 00000277#FFFFFFF580006001
(1727704271.944894) can0 00000258#0000345BFFFFFF20
(1727704271.945040) can0 00000278#FFFFFFFF80006001
(1727704271.946278) can0 00000259#FFFFA19400000000
(1727704271.946425) can0 00000279#0000000080006001
(1727704271.947399) can0 00000257#0000C28B00000000
(1727704271.947543) can0 00000277#FFFFFFF580006001
(1727704271.949892) can0 00000258#0000345BFFFFFFA8
(1727704271.950038) can0 00000278#FFFFFFFF80006001
(1727704271.951277) can0 00000259#FFFFA19400000000
(1727704271.951423) can0 00000279#0000000080006001
(1727704271.952398) can0 00000257#0000C28B00000000
(1727704271.952542) can0 00000277#FFFFFFF580006001
(1727704271.954888) can0 00000258#0000345B000000AC
(1727704271.955037) can0 00000278#FFFFFFFF80006001
(1727704271.956276) can0 00000259#FFFFA19400000000
(1727704271.956421) can0 00000279#FFFFFFFF80006001
(1727704271.957397) can0 00000257#0000C28B00000000
(1727704271.957541) can0 00000277#FFFFFFF580006001
(1727704271.959888) can0 00000258#0000345BFFFFFF74
(1727704271.960037) can0 00000278#FFFFFFFF80006001
(1727704271.961273) can0 00000259#FFFFA19400000060
(1727704271.961418) can0 00000279#FFFFFFFF80006001
(1727704271.962395) can0 00000257#0000C28B00000000
(1727704271.962539) can0 00000277#FFFFFFF580006001
(1727704271.962897) can0 00000656#8013000000000000
(1727704271.964887) can0 00000258#0000345B00000030
(1727704271.965037) can0 00000278#FFFFFFFF80006001
(1727704271.965675) can0 3A1#
(1727704271.966269) can0 00000259#FFFFA194FFFFFF48
(1727704271.966415) can0 00000279#0000000080006001
(1727704271.966775) can0 00000658#8013000000000000
(1727704271.967393) can0 00000257#0000C28B00000000
(1727704271.967537) can0 00000277#FFFFFFF580006001
(1727704271.969886) can0 00000258#0000345BFFFFFF28
(1727704271.970032) can0 00000278#FFFFFFFF80006001
(1727704271.970386) can0 00000657#8013000000000000
(1727704271.971270) can0 00000259#FFFFA194FFFFFF8C
(1727704271.971416) can0 00000279#0000000080006001
(1727704271.972392) can0 00000257#0000C28B00000000
(1727704271.972537) can0 00000277#FFFFFFF580006001
(1727704271.974883) can0 00000258#0000345BFFFFFF14
(1727704271.975029) can0 00000278#FFFFFFFF80006001
(1727704271.976268) can0 00000259#FFFFA194FFFFFFD4
(1727704271.976413) can0 00000279#FFFFFFFF80006001
(1727704271.977390) can0 00000257#0000C28B00000078
(1727704271.977538) can0 00000277#FFFFFFF580006001
(1727704271.979882) can0 00000258#0000345BFFFFFFA8
(1727704271.980028) can0 00000278#FFFFFFFF80006001
(1727704271.981268) can0 00000259#FFFFA19400000000
(1727704271.981413) can0 00000279#FFFFFFFF80006001
(1727704271.982388) can0 00000257#0000C28B00000000
(1727704271.982532) can0 00000277#FFFFFFF580006001
(1727704271.984880) can0 00000258#0000345BFFFFFEE8
(1727704271.985026) can0 00000278#FFFFFFFF80006001
(1727704271.986267) can0 00000259#FFFFA19400000000
(1727704271.986412) can0 00000279#0000000080006001
(1727704271.987385) can0 00000257#0000C28BFFFFFFFC
(1727704271.987529) can0 00000277#FFFFFFF580006001
(1727704271.989879) can0 00000258#0000345BFFFFFEE8
(1727704271.990025) can0 00000278#FFFFFFFF80006001
(1727704271.991264) can0 00000259#FFFFA19400000000
(1727704271.991410) can0 00000279#0000000080006001
(1727704271.992385) can0 00000257#0000C28B00000000
(1727704271.992529) can0 00000277#FFFFFFF580006001
(1727704271.994877) can0 00000258#0000345B000000FC
(1727704271.995023) can0 00000278#FFFFFFFF80006001
(1727704271.996262) can0 00000259#FFFFA19400000000
(1727704271.996408) can0 00000279#FFFFFFFF80006001
(1727704271.997383) can0 00000257#0000C28B00000000
(1727704271.997527) can0 00000277#FFFFFFF580006001
(1727704271.999875) can0 00000258#0000345B0000002C
(1727704272.000021) can0 00000278#FFFFFFFF80006001
(1727704272.001262) can0 00000259#FFFFA19400000000
(1727704272.001407) can0 00000279#FFFFFFFF80006001
(1727704272.002381) can0 00000257#0000C28B00000000
(1727704272.002526) can0 00000277#FFFFFFF580006001
(1727704272.004875) can0 00000258#0000345B00000000
(1727704272.005021) can0 00000278#FFFFFFFF80006001
(1727704272.006259) can0 00000259#FFFFA19400000034
(1727704272.006405) can0 00000279#0000000080006001
(1727704272.007380) can0 00000257#0000C28B00000000
(1727704272.007524) can0 00000277#FFFFFFF580006001
(1727704272.009873) can0 00000258#0000345BFFFFFF88
(1727704272.010019) can0 00000278#FFFFFFFF80006001
(1727704272.011256) can0 00000259#FFFFA1940000013C
(1727704272.011402) can0 00000279#0000000080006001
(1727704272.012379) can0 00000257#0000C28B00000000
(1727704272.012523) can0 00000277#FFFFFFF580006001
(1727704272.012880) can0 00000656#8013000000000000
(1727704272.014871) can0 00000258#0000345B00000000
(1727704272.015018) can0 00000278#FFFFFFFF80006001
(1727704272.016256) can0 00000259#FFFFA19400000010
(1727704272.016401) can0 00000279#FFFFFFFF80006001
(1727704272.016759) can0 00000658#8013000000000000
(1727704272.017377) can0 00000257#0000C28B00000000
(1727704272.017521) can0 00000277#FFFFFFF580006001
(1727704272.019870) can0 00000258#0000345BFFFFFE40
(1727704272.020016) can0 00000278#FFFFFFFF80006001
(1727704272.020370) can0 00000657#8013000000000000
(1727704272.021254) can0 00000259#FFFFA19400000004
(1727704272.021400) can0 00000279#0000000080006001
(1727704272.022375) can0 00000257#0000C28B00000000
(1727704272.022519) can0 00000277#FFFFFFF580006001
(1727704272.024870) can0 00000258#0000345BFFFFFFF4
(1727704272.025016) can0 00000278#FFFFFFFF80006001
(1727704272.026254) can0 00000259#FFFFA19400000000
(1727704272.026400) can0 00000279#0000000080006001
(1727704272.027374) can0 00000257#0000C28B00000000
(1727704272.027518) can0 00000277#FFFFFFF680006001
(1727704272.029867) can0 00000258#0000345BFFFFFFA0
(1727704272.030013) can0 00000278#FFFFFFFF80006001
(1727704272.031252) can0 00000259#FFFFA19400000000
(1727704272.031398) can0 00000279#0000000080006001
(1727704272.032372) can0 00000257#0000C28B00000000
(1727704272.032516) can0 00000277#FFFFFFF580006001
(1727704272.034865) can0 00000258#0000345BFFFFFFC0
(1727704272.035011) can0 00000278#FFFFFFFF80006001
(1727704272.036251) can0 00000259#FFFFA19400000000
(1727704272.036395) can0 00000279#FFFFFFFF80006001
(1727704272.037371) can0 00000257#0000C28B00000000
(1727704272.037515) can0 00000277#FFFFFFF580006001
(1727704272.039863) can0 00000258#0000345BFFFFFFFC
(1727704272.040009) can0 00000278#FFFFFFFF80006001
(1727704272.041249) can0 00000259#FFFFA19400000000
(1727704272.041394) can0 00000279#FFFFFFFF80006001
(1727704272.042369) can0 00000257#0000C28B00000000
(1727704272.042513) can0 00000277#FFFFFFF680006001
(1727704272.044861) can0 00000258#0000345B00000008
(1727704272.045007) can0 00000278#FFFFFFFF80006001
(1727704272.046247) can0 00000259#FFFFA194FFFFFFB8
(1727704272.046391) can0 00000279#0000000080006001
(1727704272.047365) can0 00000257#0000C28B00000038
(1727704272.047509) can0 00000277#FFFFFFF680006001
(1727704272.049861) can0 00000258#0000345B00000000
(1727704272.050007) can0 00000278#FFFFFFFF80006001
(1727704272.051244) can0 00000259#FFFFA194FFFFFFD4
(1727704272.051391) can0 00000279#0000000080006001
(1727704272.052363) can0 00000257#0000C28B00000004
(1727704272.052507) can0 00000277#FFFFFFF580006001
(1727704272.054859) can0 00000258#0000345B00000058
(1727704272.055005) can0 00000278#FFFFFFFF80006001
(1727704272.056243) can0 00000259#FFFFA19400000038
(1727704272.056388) can0 00000279#FFFFFFFF80006001
(1727704272.057364) can0 00000257#0000C28B00000000
(1727704272.057508) can0 00000277#FFFFFFF580006001
(1727704272.059857) can0 00000258#0000345B00000008
(1727704272.060003) can0 00000278#FFFFFFFF80006001
(1727704272.061243) can0 00000259#FFFFA194000000A4
(1727704272.061387) can0 00000279#FFFFFFFF80006001
(1727704272.062362) can0 00000257#0000C28B00000000
(1727704272.062507) can0 00000277#FFFFFFF680006001
(1727704272.062865) can0 00000656#8013000000000000
(1727704272.064856) can0 00000258#0000345B00000000
(1727704272.065002) can0 00000278#FFFFFFFF80006001
(1727704272.066243) can0 00000259#FFFFA19400000004
(1727704272.066386) can0 00000279#0000000080006001
(1727704272.066744) can0 00000658#8013000000000000
(1727704272.066813) can0 101#0001
(1727704272.067360) can0 00000257#0000C28B00000040
(1727704272.067504) can0 00000277#FFFFFFF680006001
(1727704272.069853) can0 00000258#0000345BFFFFFFA4
(1727704272.069999) can0 00000278#FFFFFFFF80006001
(1727704272.070354) can0 00000657#8013000000000000
(1727704272.071238) can0 00000259#FFFFA19400000004
(1727704272.071384) can0 00000279#0000000080006001
(1727704272.072359) can0 00000257#0000C28B00000078
(1727704272.072503) can0 00000277#FFFFFFF580006001
(1727704272.074854) can0 00000258#0000345BFFFFFEF8
(1727704272.075000) can0 00000278#FFFFFFFF80006001
(1727704272.076237) can0 00000259#FFFFA19400000004
(1727704272.076382) can0 00000279#FFFFFFFF80006001
(1727704272.077356) can0 00000257#0000C28BFFFFFFFC
(1727704272.077500) can0 00000277#FFFFFFF580006001
(1727704272.079850) can0 00000258#0000345B00000008
(1727704272.079996) can0 00000278#FFFFFFFF80006001
(1727704272.081234) can0 00000259#FFFFA194FFFFFEB0
(1727704272.081379) can0 00000279#FFFFFFFF80006001
(1727704272.082356) can0 00000257#0000C28B00000000
(1727704272.082501) can0 00000277#FFFFFFF680006001
(1727704272.084850) can0 00000258#0000345B00000000
(1727704272.084996) can0 00000278#FFFFFFFF80006001
(1727704272.086235) can0 00000259#FFFFA1940000029C
(1727704272.086379) can0 00000279#0000000080006001
(1727704272.087355) can0 00000257#0000C28B00000000
(1727704272.087499) can0 00000277#FFFFFFF680006001
(1727704272.089848) can0 00000258#0000345B00000000
(1727704272.089994) can0 00000278#FFFFFFFF80006001
(1727704272.091231) can0 00000259#FFFFA194000001A4
(1727704272.091377) can0 00000279#0000000080006001
(1727704272.092352) can0 00000257#0000C28B00000008
(1727704272.092496) can0 00000277#FFFFFFF580006001
(1727704272.094846) can0 00000258#0000345B00000000
(1727704272.094992) can0 00000278#FFFFFFFF80006001
(1727704272.096235) can0 00000259#FFFFA194000000C4
(1727704272.096375) can0 00000279#FFFFFFFF80006001
(1727704272.097351) can0 00000257#0000C28B00000000
(1727704272.097495) can0 00000277#FFFFFFF580006001
(1727704272.099845) can0 00000258#0000345BFFFFFFC4
(1727704272.099991) can0 00000278#FFFFFFFF80006001
(1727704272.101229) can0 00000259#FFFFA194000000A4
(1727704272.101374) can0 00000279#FFFFFFFF80006001
(1727704272.102350) can0 00000257#0000C28B00000000
(1727704272.102494) can0 00000277#FFFFFFF580006001
(1727704272.104845) can0 00000258#0000345B00000000
(1727704272.104990) can0 00000278#FFFFFFFF80006001
(1727704272.106227) can0 00000259#FFFFA194FFFFFFD4
(1727704272.106373) can0 00000279#0000000080006001
(1727704272.107347) can0 00000257#0000C28B00000064
(1727704272.107491) can0 00000277#FFFFFFF680006001
(1727704272.109845) can0 00000258#0000345BFFFFFE40
(1727704272.109988) can0 00000278#FFFFFFFF80006001
(1727704272.111228) can0 00000259#FFFFA19400000000
(1727704272.111373) can0 00000279#0000000080006001
(1727704272.111725) can0 00001040#
(1727704272.112346) can0 00000257#0000C28BFFFFFFFC
(1727704272.112490) can0 00000277#FFFFFFF580006001
(1727704272.112849) can0 00000656#8013000000000000
(1727704272.114840) can0 00000258#0000345B0000000C
(1727704272.114986) can0 00000278#FFFFFFFF80006001
(1727704272.116225) can0 00000259#FFFFA19400000000
(1727704272.116370) can0 00000279#FFFFFFFF80006001
(1727704272.116728) can0 00000658#8013000000000000
(1727704272.117346) can0 00000257#0000C28B00000000
(1727704272.117489) can0 00000277#FFFFFFF580006001
(1727704272.119839) can0 00000258#0000345B00000038
(1727704272.119985) can0 00000278#FFFFFFFF80006001
(1727704272.120338) can0 00000657#8013000000000000
(1727704272.121228) can0 00000259#FFFFA19400000000
(1727704272.121369) can0 00000279#0000000080006001
(1727704272.122346) can0 00000257#0000C28B00000000
(1727704272.122487) can0 00000277#FFFFFFF580006001
(1727704272.124838) can0 00000258#0000345BFFFFFED0
(1727704272.124984) can0 00000278#FFFFFFFF80006001
(1727704272.126222) can0 00000259#FFFFA19400000000
(1727704272.126368) can0 00000279#0000000080006001
(1727704272.127341) can0 00000257#0000C28B00000000
(1727704272.127485) can0 00000277#FFFFFFF680006001
(1727704272.129838) can0 00000258#0000345BFFFFFFF0
(1727704272.129984) can0 00000278#FFFFFFFF80006001
(1727704272.131220) can0 00000259#FFFFA19400000000
(1727704272.131367) can0 00000279#0000000080006001
(1727704272.132340) can0 00000257#0000C28B00000000
(1727704272.132484) can0 00000277#FFFFFFF580006001
(1727704272.134836) can0 00000258#0000345BFFFFFFF8
(1727704272.134982) can0 00000278#FFFFFFFF80006001
(1727704272.136221) can0 00000259#FFFFA19400000034
(1727704272.136363) can0 00000279#FFFFFFFF80006001
(1727704272.137336) can0 00000257#0000C28BFFFFFFBC
(1727704272.137481) can0 00000277#FFFFFFF580006001
(1727704272.139833) can0 00000258#0000345BFFFFFF80
(1727704272.139979) can0 00000278#FFFFFFFF80006001
(1727704272.141218) can0 00000259#FFFFA194FFFFFFE4
(1727704272.141361) can0 00000279#0000000080006001
(1727704272.142337) can0 00000257#0000C28B00000000
(1727704272.142481) can0 00000277#FFFFFFF680006001
(1727704272.144831) can0 00000258#0000345B0000007C
(1727704272.144977) can0 00000278#FFFFFFFF80006001
(1727704272.146221) can0 00000259#FFFFA19400000000
(1727704272.146362) can0 00000279#0000000080006001
(1727704272.147335) can0 00000257#0000C28B00000000
(1727704272.147479) can0 00000277#FFFFFFF680006001
(1727704272.149829) can0 00000258#0000345B00000020
(1727704272.149975) can0 00000278#FFFFFFFF80006001
(1727704272.151212) can0 00000259#FFFFA19400000078
(1727704272.151358) can0 00000279#0000000080006001
(1727704272.152333) can0 00000257#0000C28BFFFFFFFC
(1727704272.152477) can0 00000277#FFFFFFF580006001
(1727704272.154827) can0 00000258#0000345B00000008
(1727704272.154973) can0 00000278#FFFFFFFF80006001
(1727704272.156209) can0 00000259#FFFFA194FFFFFF28
(1727704272.156354) can0 00000279#FFFFFFFF80006001
(1727704272.157331) can0 00000257#0000C28B00000008
(1727704272.157475) can0 00000277#FFFFFFF580006001
(1727704272.159826) can0 00000258#0000345BFFFFFEB0
(1727704272.159972) can0 00000278#FFFFFFFF80006001
(1727704272.161210) can0 00000259#FFFFA194FFFFFFFC
(1727704272.161356) can0 00000279#0000000080006001
(1727704272.162329) can0 00000257#0000C28B00000030
(1727704272.162473) can0 00000277#FFFFFFF580006001
(1727704272.162832) can0 00000656#8013000000000000
(1727704272.164825) can0 00000258#0000345BFFFFFF50
(1727704272.164971) can0 00000278#FFFFFFFF80006001
(1727704272.166208) can0 00000259#FFFFA19400000004
(1727704272.166354) can0 00000279#0000000080006001
(1727704272.166712) can0 00000658#8013000000000000
(1727704272.167328) can0 00000257#0000C28B00000000
(1727704272.167472) can0 00000277#FFFFFFF680006001
(1727704272.169824) can0 00000258#0000345BFFFFFF00
(1727704272.169970) can0 00000278#FFFFFFFF80006001
(1727704272.170323) can0 00000657#8013000000000000
(1727704272.171208) can0 00000259#FFFFA19400000000
(1727704272.171354) can0 00000279#0000000080006001
(1727704272.172327) can0 00000257#0000C28B00000000
(1727704272.172471) can0 00000277#FFFFFFF580006001
(1727704272.174822) can0 00000258#0000345BFFFFFFF4
(1727704272.174968) can0 00000278#FFFFFFFF80006001
(1727704272.176206) can0 00000259#FFFFA19400000000
(1727704272.176352) can0 00000279#0000000080006001
(1727704272.177326) can0 00000257#0000C28B00000000
(1727704272.177470) can0 00000277#FFFFFFF580006001
(1727704272.179820) can0 00000258#0000345B00000030
(1727704272.179967) can0 00000278#FFFFFFFF80006001
(1727704272.181204) can0 00000259#FFFFA19400000000
(1727704272.181350) can0 00000279#0000000080006001
(1727704272.182324) can0 00000257#0000C28B00000000
(1727704272.182468) can0 00000277#FFFFFFF680006001
(1727704272.184817) can0 00000258#0000345B0000002C
(1727704272.184963) can0 00000278#FFFFFFFF80006001
(1727704272.186203) can0 00000259#FFFFA19400000000
(1727704272.186349) can0 00000279#0000000080006001
(1727704272.187322) can0 00000257#0000C28B00000000
(1727704272.187467) can0 00000277#FFFFFFF680006001
(1727704272.189816) can0 00000258#0000345BFFFFFFCC
(1727704272.189962) can0 00000278#FFFFFFFF80006001
(1727704272.191201) can0 00000259#FFFFA19400000000
(1727704272.191350) can0 00000279#0000000080006001
(1727704272.192321) can0 00000257#0000C28B00000000
(1727704272.192465) can0 00000277#FFFFFFF680006001
(1727704272.194816) can0 00000258#0000345BFFFFFFFC
(1727704272.194962) can0 00000278#FFFFFFFF80006001
(1727704272.196198) can0 00000259#FFFFA19400000094
(1727704272.196343) can0 00000279#FFFFFFFF80006001
(1727704272.197318) can0 00000257#0000C28BFFFFFFF8
(1727704272.197462) can0 00000277#FFFFFFF680006001
(1727704272.199813) can0 00000258#0000345BFFFFFFC8
(1727704272.199959) can0 00000278#FFFFFFFF80006001
(1727704272.201197) can0 00000259#FFFFA1940000006C
(1727704272.201343) can0 00000279#0000000080006001
(1727704272.202317) can0 00000257#0000C28B00000000
(1727704272.202461) can0 00000277#FFFFFFF680006001
(1727704272.204810) can0 00000258#0000345B000000AC
(1727704272.204956) can0 00000278#FFFFFFFF80006001
(1727704272.206197) can0 00000259#FFFFA19400000000
(1727704272.206343) can0 00000279#0000000080006001
(1727704272.207316) can0 00000257#0000C28B00000000
(1727704272.207460) can0 00000277#FFFFFFF680006001
(1727704272.209809) can0 00000258#0000345B0000018C
(1727704272.209955) can0 00000278#FFFFFFFF80006001
(1727704272.211195) can0 00000259#FFFFA19400000000
(1727704272.211341) can0 00000279#0000000080006001
(1727704272.212315) can0 00000257#0000C28B00000000
(1727704272.212459) can0 00000277#FFFFFFF680006001
(1727704272.212816) can0 00000656#8013000000000000
(1727704272.214809) can0 00000258#0000345B00000030
(1727704272.214955) can0 00000278#FFFFFFFF80006001
(1727704272.216193) can0 00000259#FFFFA19400000000
(1727704272.216339) can0 00000279#0000000080006001
(1727704272.216696) can0 00000658#8013000000000000
(1727704272.217313) can0 00000257#0000C28B00000000
(1727704272.217457) can0 00000277#FFFFFFF580006001
(1727704272.219806) can0 00000258#0000345B00000004
(1727704272.219953) can0 00000278#FFFFFFFF80006001
(1727704272.220308) can0 00000657#8013000000000000
(1727704272.221191) can0 00000259#FFFFA194000000A8
(1727704272.221337) can0 00000279#0000000080006001
(1727704272.222311) can0 00000257#0000C28B00000000
(1727704272.222455) can0 00000277#FFFFFFF680006001
(1727704272.224806) can0 00000258#0000345B00000000
(1727704272.224952) can0 00000278#FFFFFFFF80006001
(1727704272.226188) can0 00000259#FFFFA194000002D0
(1727704272.226335) can0 00000279#0000000080006001
(1727704272.227309) can0 00000257#0000C28B00000000
(1727704272.227453) can0 00000277#FFFFFFF680006001
(1727704272.229805) can0 00000258#0000345B00000000
(1727704272.229952) can0 00000278#FFFFFFFF80006001
(1727704272.231187) can0 00000259#FFFFA194000001C8
(1727704272.231333) can0 00000279#0000000080006001
(1727704272.232308) can0 00000257#0000C28B00000000
(1727704272.232452) can0 00000277#FFFFFFF580006001
(1727704272.234803) can0 00000258#0000345B00000000
(1727704272.234952) can0 00000278#FFFFFFFF80006001
(1727704272.236187) can0 00000259#FFFFA19400000008
(1727704272.236332) can0 00000279#FFFFFFFF80006001
(1727704272.237307) can0 00000257#0000C28B00000000
(1727704272.237452) can0 00000277#FFFFFFF580006001
(1727704272.239802) can0 00000258#0000345BFFFFFFF4
(1727704272.239952) can0 00000278#FFFFFFFF80006001
(1727704272.241186) can0 00000259#FFFFA19400000000
(1727704272.241332) can0 00000279#0000000080006001
(1727704272.242305) can0 00000257#0000C28B00000000
(1727704272.242452) can0 00000277#FFFFFFF680006001
(1727704272.244800) can0 00000258#0000345B00000060
(1727704272.244946) can0 00000278#FFFFFFFF80006001
(1727704272.246184) can0 00000259#FFFFA19400000000
(1727704272.246330) can0 00000279#0000000080006001
(1727704272.247303) can0 00000257#0000C28B00000000
(1727704272.247447) can0 00000277#FFFFFFF680006001
(1727704272.249798) can0 00000258#0000345BFFFFFFFC
(1727704272.249945) can0 00000278#FFFFFFFF80006001
(1727704272.251182) can0 00000259#FFFFA19400000000
(1727704272.251328) can0 00000279#0000000080006001
(1727704272.252301) can0 00000257#0000C28B00000000
(1727704272.252445) can0 00000277#FFFFFFF680006001
(1727704272.254797) can0 00000258#0000345B00000000
(1727704272.254943) can0 00000278#FFFFFFFF80006001
(1727704272.256181) can0 00000259#FFFFA19400000000
(1727704272.256326) can0 00000279#FFFFFFFF80006001
(1727704272.257300) can0 00000257#0000C28B00000000
(1727704272.257444) can0 00000277#FFFFFFF680006001
(1727704272.259794) can0 00000258#0000345B00000004
(1727704272.259940) can0 00000278#FFFFFFFF80006001
(1727704272.261179) can0 00000259#FFFFA19400000000
(1727704272.261325) can0 00000279#0000000080006001
(1727704272.262298) can0 00000257#0000C28B00000000
(1727704272.262442) can0 00000277#FFFFFFF680006001
(1727704272.262800) can0 00000656#8013000000000000
(1727704272.264794) can0 00000258#0000345B00000030
(1727704272.264940) can0 00000278#FFFFFFFF80006001
(1727704272.266175) can0 00000259#FFFFA194FFFFFF10
(1727704272.266321) can0 00000279#0000000080006001
(1727704272.266681) can0 00000658#8013000000000000
(1727704272.267297) can0 00000257#0000C28B00000000
(1727704272.267441) can0 00000277#FFFFFFF680006001
(1727704272.269792) can0 00000258#0000345BFFFFFFC4
(1727704272.269938) can0 00000278#FFFFFFFF80006001
(1727704272.270292) can0 00000657#8013000000000000
(1727704272.271174) can0 00000259#FFFFA194FFFFFFE4
(1727704272.271320) can0 00000279#0000000080006001
(1727704272.272295) can0 00000257#0000C28B00000000
(1727704272.272439) can0 00000277#FFFFFFF680006001
(1727704272.274791) can0 00000258#0000345BFFFFFFF4
(1727704272.274937) can0 00000278#FFFFFFFF80006001
(1727704272.276174) can0 00000259#FFFFA19400000000
(1727704272.276319) can0 00000279#FFFFFFFF80006001
(1727704272.277293) can0 00000257#0000C28B00000000
(1727704272.277437) can0 00000277#FFFFFFF680006001
(1727704272.279789) can0 00000258#0000345B00000000
(1727704272.279935) can0 00000278#FFFFFFFF80006001
(1727704272.281173) can0 00000259#FFFFA19400000000
(1727704272.281319) can0 00000279#0000000080006001
(1727704272.282290) can0 00000257#0000C28BFFFFFF2C
(1727704272.282434) can0 00000277#FFFFFFF680006001
(1727704272.284788) can0 00000258#0000345B00000000
(1727704272.284934) can0 00000278#FFFFFFFF80006001
(1727704272.286170) can0 00000259#FFFFA19400000020
(1727704272.286316) can0 00000279#0000000080006001
(1727704272.287288) can0 00000257#0000C28B00000010
(1727704272.287432) can0 00000277#FFFFFFF680006001
(1727704272.289786) can0 00000258#0000345B00000000
(1727704272.289932) can0 00000278#FFFFFFFF80006001
(1727704272.291170) can0 00000259#FFFFA19400000000
(1727704272.291316) can0 00000279#0000000080006001
(1727704272.292287) can0 00000257#0000C28B00000020
(1727704272.292431) can0 00000277#FFFFFFF680006001
(1727704272.294784) can0 00000258#0000345B00000000
(1727704272.294930) can0 00000278#FFFFFFFF80006001
(1727704272.296169) can0 00000259#FFFFA19400000000
(1727704272.296314) can0 00000279#FFFFFFFF80006001
(1727704272.297287) can0 00000257#0000C28B00000000
(1727704272.297432) can0 00000277#FFFFFFF680006001
(1727704272.299783) can0 00000258#0000345B00000000
(1727704272.299929) can0 00000278#FFFFFFFF80006001
(1727704272.301167) can0 00000259#FFFFA19400000000
(1727704272.301313) can0 00000279#0000000080006001
(1727704272.302286) can0 00000257#0000C28B00000000
(1727704272.302430) can0 00000277#FFFFFFF680006001
(1727704272.304781) can0 00000258#0000345B00000000
(1727704272.304927) can0 00000278#FFFFFFFF80006001
(1727704272.306164) can0 00000259#FFFFA194FFFFFFA8
(1727704272.306310) can0 00000279#0000000080006001
(1727704272.307284) can0 00000257#0000C28B00000000
(1727704272.307428) can0 00000277#FFFFFFF780006001
(1727704272.309777) can0 00000258#0000345B000000AC
(1727704272.309923) can0 00000278#FFFFFFFF80006001
(1727704272.311160) can0 00000259#FFFFA194FFFFFF18
(1727704272.311306) can0 00000279#0000000080006001
(1727704272.312282) can0 00000257#0000C28B00000000
(1727704272.312426) can0 00000277#FFFFFFF680006001
(1727704272.312784) can0 00000656#8013000000000000
(1727704272.312858) can0 00001040#
(1727704272.314777) can0 00000258#0000345BFFFFFF44
(1727704272.314923) can0 00000278#FFFFFFFF80006001
(1727704272.316160) can0 00000259#FFFFA194FFFFFFE4
(1727704272.316305) can0 00000279#FFFFFFFF80006001
(1727704272.316665) can0 00000658#8013000000000000
(1727704272.317280) can0 00000257#0000C28B00000000
(1727704272.317425) can0 00000277#FFFFFFF680006001
(1727704272.319775) can0 00000258#0000345B00000008
(1727704272.319921) can0 00000278#FFFFFFFF80006001
(1727704272.320276) can0 00000657#8013000000000000
(1727704272.321160) can0 00000259#FFFFA19400000004
(1727704272.321306) can0 00000279#0000000080006001
(1727704272.322279) can0 00000257#0000C28B00000000
(1727704272.322423) can0 00000277#FFFFFFF680006001
(1727704272.324775) can0 00000258#0000345B00000000
(1727704272.324921) can0 00000278#FFFFFFFF80006001
(1727704272.326159) can0 00000259#FFFFA19400000000
(1727704272.326305) can0 00000279#0000000080006001
(1727704272.327278) can0 00000257#0000C28B00000000
(1727704272.327422) can0 00000277#FFFFFFF780006001
(1727704272.329773) can0 00000258#0000345BFFFFFF88
(1727704272.329919) can0 00000278#FFFFFFFF80006001
(1727704272.331157) can0 00000259#FFFFA19400000000
(1727704272.331303) can0 00000279#0000000080006001
(1727704272.332276) can0 00000257#0000C28B00000000
(1727704272.332420) can0 00000277#FFFFFFF680006001
(1727704272.334771) can0 00000258#0000345B00000000
(1727704272.334918) can0 00000278#FFFFFFFF80006001
(1727704272.336158) can0 00000259#FFFFA19400000000
(1727704272.336300) can0 00000279#FFFFFFFF80006001
(1727704272.337274) can0 00000257#0000C28B00000000
(1727704272.337418) can0 00000277#FFFFFFF680006001
(1727704272.339771) can0 00000258#0000345BFFFFFF28
(1727704272.339917) can0 00000278#FFFFFFFF80006001
(1727704272.341153) can0 00000259#FFFFA19400000004
(1727704272.341299) can0 00000279#0000000080006001
(1727704272.342272) can0 00000257#0000C28B00000000
(1727704272.342416) can0 00000277#FFFFFFF680006001
(1727704272.344768) can0 00000258#0000345B000000FC
(1727704272.344914) can0 00000278#FFFFFFFF80006001
(1727704272.346150) can0 00000259#FFFFA19400000098
(1727704272.346297) can0 00000279#0000000080006001
(1727704272.347271) can0 00000257#0000C28B00000000
(1727704272.347415) can0 00000277#FFFFFFF680006001
(1727704272.349766) can0 00000258#0000345B00000064
(1727704272.349912) can0 00000278#FFFFFFFF80006001
(1727704272.351150) can0 00000259#FFFFA194FFFFFFD4
(1727704272.351296) can0 00000279#0000000080006001
(1727704272.352270) can0 00000257#0000C28B00000000
(1727704272.352414) can0 00000277#FFFFFFF680006001
(1727704272.354764) can0 00000258#0000345BFFFFFF9C
(1727704272.354910) can0 00000278#FFFFFFFF80006001
(1727704272.356148) can0 00000259#FFFFA194FFFFFE1C
(1727704272.356293) can0 00000279#FFFFFFFF80006001
(1727704272.357268) can0 00000257#0000C28B00000000
(1727704272.357412) can0 00000277#FFFFFFF680006001
(1727704272.359763) can0 00000258#0000345BFFFFFE34
(1727704272.359909) can0 00000278#FFFFFFFF80006001
(1727704272.361146) can0 00000259#FFFFA194000001C8
(1727704272.361291) can0 00000279#FFFFFFFF80006001
(1727704272.362266) can0 00000257#0000C28B00000000
(1727704272.362410) can0 00000277#FFFFFFF680006001
(1727704272.362768) can0 00000656#8013000000000000
(1727704272.364762) can0 00000258#0000345BFFFFFF28
(1727704272.364908) can0 00000278#FFFFFFFF80006001
(1727704272.366147) can0 00000259#FFFFA1940000000C
(1727704272.366293) can0 00000279#0000000080006001
(1727704272.366649) can0 00000658#8013000000000000
(1727704272.367263) can0 00000257#0000C28BFFFFFE40
(1727704272.367407) can0 00000277#FFFFFFF680006001
(1727704272.369761) can0 00000258#0000345B00000000
(1727704272.369907) can0 00000278#FFFFFFFF80006001
(1727704272.370261) can0 00000657#8013000000000000
(1727704272.371143) can0 00000259#FFFFA194FFFFFF94
(1727704272.371290) can0 00000279#0000000080006001
(1727704272.372262) can0 00000257#0000C28B00000064
(1727704272.372406) can0 00000277#FFFFFFF680006001
(1727704272.374760) can0 00000258#0000345B00000000
(1727704272.374905) can0 00000278#FFFFFFFF80006001
(1727704272.376141) can0 00000259#FFFFA194FFFFFF9C
(1727704272.376286) can0 00000279#FFFFFFFF80006001
(1727704272.377262) can0 00000257#0000C28B00000000
(1727704272.377406) can0 00000277#FFFFFFF680006001
(1727704272.379760) can0 00000258#0000345B00000008
(1727704272.379903) can0 00000278#FFFFFFFF80006001
(1727704272.381142) can0 00000259#FFFFA194000000DC
(1727704272.381287) can0 00000279#FFFFFFFF80006001
(1727704272.382260) can0 00000257#0000C28B00000000
(1727704272.382404) can0 00000277#FFFFFFF680006001
(1727704272.384755) can0 00000258#0000345B00000008
(1727704272.384901) can0 00000278#FFFFFFFF80006001
(1727704272.386138) can0 00000259#FFFFA1940000003C
(1727704272.386284) can0 00000279#0000000080006001
(1727704272.387261) can0 00000257#0000C28B00000000
(1727704272.387402) can0 00000277#FFFFFFF780006001
(1727704272.389753) can0 00000258#0000345B000001F4
(1727704272.389899) can0 00000278#FFFFFFFF80006001
(1727704272.391137) can0 00000259#FFFFA19400000038
(1727704272.391283) can0 00000279#0000000080006001
(1727704272.392261) can0 00000257#0000C28B00000000
(1727704272.392401) can0 00000277#FFFFFFF680006001
(1727704272.394752) can0 00000258#0000345BFFFFFF10
(1727704272.394898) can0 00000278#FFFFFFFF80006001
(1727704272.396135) can0 00000259#FFFFA194FFFFFF98
(1727704272.396280) can0 00000279#FFFFFFFF80006001
(1727704272.397255) can0 00000257#0000C28BFFFFFFD0
(1727704272.397399) can0 00000277#FFFFFFF680006001
(1727704272.399751) can0 00000258#0000345BFFFFFF34
(1727704272.399897) can0 00000278#FFFFFFFF80006001
(1727704272.401135) can0 00000259#FFFFA19400000000
(1727704272.401281) can0 00000279#FFFFFFFF80006001
(1727704272.402253) can0 00000257#0000C28B00000000
(1727704272.402397) can0 00000277#FFFFFFF680006001
(1727704272.404750) can0 00000258#0000345BFFFFFFB0
(1727704272.404896) can0 00000278#FFFFFFFF80006001
(1727704272.406134) can0 00000259#FFFFA19400000000
(1727704272.406280) can0 00000279#0000000080006001
(1727704272.407252) can0 00000257#0000C28B00000000
(1727704272.407396) can0 00000277#FFFFFFF680006001
(1727704272.409748) can0 00000258#0000345B00000000
(1727704272.409894) can0 00000278#FFFFFFFF80006001
(1727704272.411131) can0 00000259#FFFFA19400000004
(1727704272.411276) can0 00000279#FFFFFFFF80006001
(1727704272.412248) can0 00000257#0000C28B0000002C
(1727704272.412392) can0 00000277#FFFFFFF680006001
(1727704272.412752) can0 00000656#8013000000000000
(1727704272.414746) can0 00000258#0000345BFFFFFF2C
(1727704272.414892) can0 00000278#FFFFFFFF80006001
(1727704272.416128) can0 00000259#FFFFA194FFFFFF70
(1727704272.416273) can0 00000279#FFFFFFFF80006001
(1727704272.416633) can0 00000658#8013000000000000
(1727704272.417247) can0 00000257#0000C28BFFFFFFFC
(1727704272.417391) can0 00000277#FFFFFFF680006001
(1727704272.419746) can0 00000258#0000345B00000038
(1727704272.419893) can0 00000278#FFFFFFFF80006001
(1727704272.420246) can0 00000657#8013000000000000
(1727704272.421126) can0 00000259#FFFFA1940000001C
(1727704272.421271) can0 00000279#FFFFFFFF80006001
(1727704272.422247) can0 00000257#0000C28B00000000
(1727704272.422391) can0 00000277#FFFFFFF680006001
(1727704272.424744) can0 00000258#0000345B00000000
(1727704272.424890) can0 00000278#FFFFFFFF80006001
(1727704272.426128) can0 00000259#FFFFA19400000000
(1727704272.426273) can0 00000279#FFFFFFFF80006001
(1727704272.427245) can0 00000257#0000C28B00000000
(1727704272.427390) can0 00000277#FFFFFFF680006001
(1727704272.429742) can0 00000258#0000345BFFFFFF80
(1727704272.429888) can0 00000278#FFFFFFFF80006001
(1727704272.431126) can0 00000259#FFFFA19400000000
(1727704272.431271) can0 00000279#FFFFFFFF80006001
(1727704272.432244) can0 00000257#0000C28B00000000
(1727704272.432388) can0 00000277#FFFFFFF680006001
(1727704272.434739) can0 00000258#0000345B00000064
(1727704272.434885) can0 00000278#FFFFFFFF80006001
(1727704272.436123) can0 00000259#FFFFA194FFFFFFA8
(1727704272.436268) can0 00000279#FFFFFFFF80006001
(1727704272.437242) can0 00000257#0000C28B00000000
(1727704272.437386) can0 00000277#FFFFFFF580006001
(1727704272.439739) can0 00000258#0000345B00000000
(1727704272.439885) can0 00000278#FFFFFFFF80006001
(1727704272.441121) can0 00000259#FFFFA19400000004
(1727704272.441267) can0 00000279#FFFFFFFF80006001
(1727704272.442239) can0 00000257#0000C28B00000008
(1727704272.442383) can0 00000277#FFFFFFF580006001
(1727704272.444739) can0 00000258#0000345BFFFFFEA0
(1727704272.444886) can0 00000278#FFFFFFFF80006001
(1727704272.446119) can0 00000259#FFFFA194FFFFFE68
(1727704272.446264) can0 00000279#FFFFFFFF80006001
(1727704272.447239) can0 00000257#0000C28B00000000
(1727704272.447383) can0 00000277#FFFFFFF680006001
(1727704272.449735) can0 00000258#0000345BFFFFFF34
(1727704272.449881) can0 00000278#FFFFFFFF80006001
(1727704272.451118) can0 00000259#FFFFA194000000A4
(1727704272.451264) can0 00000279#FFFFFFFF80006001
(1727704272.452237) can0 00000257#0000C28B00000000
(1727704272.452381) can0 00000277#FFFFFFF580006001
(1727704272.454736) can0 00000258#0000345BFFFFFFF0
(1727704272.454882) can0 00000278#FFFFFFFF80006001
(1727704272.456116) can0 00000259#FFFFA19400000078
(1727704272.456264) can0 00000279#FFFFFFFF80006001
(1727704272.457235) can0 00000257#0000C28B00000000
(1727704272.457379) can0 00000277#FFFFFFF580006001
(1727704272.459733) can0 00000258#0000345B00000000
